"G_CP [um]","L_CP [um]","Freq [GHz]","ang_rad(S(2,1)) []","mag(S(2,1)) []"
16,200,7.111,-0.460972155540792,0.992846697881825
16,200,7.111015,-0.461403145140304,0.992799079964974
16,200,7.11103,-0.461838170632133,0.99275082903971
16,200,7.111045,-0.462277288910124,0.992701933537326
16,200,7.11106,-0.462720557939337,0.992652381621024
16,200,7.111075,-0.4631680367813,0.992602161178401
16,200,7.11109,-0.463619785620052,0.992551259813673
16,200,7.111105,-0.46407586578878,0.99249966483966
16,200,7.11112,-0.46453633979737,0.992447363269485
16,200,7.111135,-0.465001271360446,0.992394341808035
16,200,7.11115,-0.465470725426815,0.992340586843064
16,200,7.111165,-0.465944768209125,0.992286084436073
16,200,7.11118,-0.466423467214708,0.992230820312834
16,200,7.111195,-0.466906891277372,0.992174779853604
16,200,7.11121,-0.467395110589859,0.992117948083019
16,200,7.111225,-0.467888196737589,0.992060309659608
16,200,7.11124,-0.468386222733253,0.99200184886497
16,200,7.111255,-0.468889263052283,0.991942549592583
16,200,7.11127,-0.469397393669722,0.991882395336186
16,200,7.111285,-0.469910692097927,0.991821369177795
16,200,7.1113,-0.470429237425507,0.99175945377527
16,200,7.111315,-0.470953110357591,0.991696631349439
16,200,7.11133,-0.471482393256883,0.991632883670811
16,200,7.111345,-0.472017170186649,0.991568192045734
16,200,7.11136,-0.472557526954417,0.991502537302126
16,200,7.111375,-0.473103551157424,0.991435899774648
16,200,7.11139,-0.473655332229262,0.991368259289367
16,200,7.111405,-0.474212961488093,0.99129959514784
16,200,7.11142,-0.474776532186336,0.991229886110621
16,200,7.111435,-0.475346139562037,0.99115911038015
16,200,7.11145,-0.475921880891703,0.991087245583025
16,200,7.111465,-0.47650385554492,0.991014268751606
16,200,7.11148,-0.477092165040813,0.990940156304913
16,200,7.111495,-0.477686913106217,0.990864884028823
16,200,7.11151,-0.478288205735551,0.990788427055541
16,200,7.111525,-0.478896151253214,0.990710759842214
16,200,7.11154,-0.479510860377558,0.990631856148789
16,200,7.111555,-0.480132446286915,0.990551689015029
16,200,7.11157,-0.480761024688355,0.990470230736564
16,200,7.111585,-0.481396713888048,0.990387452840103
16,200,7.1116,-0.482039634864613,0.990303326057594
16,200,7.111615,-0.48268991134438,0.990217820299444
16,200,7.11163,-0.483347669879857,0.990130904626585
16,200,7.111645,-0.484013039930141,0.990042547221537
16,200,7.11166,-0.484686153944732,0.989952715358218
16,200,7.111675,-0.485367147449836,0.989861375370596
16,200,7.11169,-0.486056159137902,0.989768492620042
16,200,7.111705,-0.486753330959856,0.989674031461411
16,200,7.11172,-0.487458808221447,0.989577955207614
16,200,7.111735,-0.488172739682038,0.989480226092859
16,200,7.11175,-0.488895277657391,0.989380805234308
16,200,7.111765,-0.489626578126157,0.989279652592135
16,200,7.11178,-0.490366800839967,0.989176726927921
16,200,7.111795,-0.491116109437649,0.989071985761303
16,200,7.11181,-0.49187467156352,0.98896538532477
16,200,7.111825,-0.492642658990164,0.988856880516527
16,200,7.11184,-0.49342024774548,0.988746424851352
16,200,7.111855,-0.494207618244587,0.98863397040932
16,200,7.11187,-0.495004955426567,0.988519467782311
16,200,7.111885,-0.495812448896564,0.988402866018137
16,200,7.1119,-0.496630293072558,0.988284112562312
16,200,7.111915,-0.497458687338697,0.988163153197105
16,200,7.11193,-0.498297836203762,0.98803993197798
16,200,7.111945,-0.499147949465679,0.987914391167187
16,200,7.11196,-0.500009242382853,0.987786471164294
16,200,7.111975,-0.5008819358519,0.987656110433612
16,200,7.11199,-0.501766256592033,0.987523245428326
16,200,7.112005,-0.502662437337303,0.987387810511077
16,200,7.11202,-0.503570717035879,0.987249737870936
16,200,7.112035,-0.504491341057745,0.987108957436439
16,200,7.11205,-0.505424561410118,0.986965396784655
16,200,7.112065,-0.506370636962258,0.986818981045841
16,200,7.11208,-0.507329833678892,0.986669632803655
16,200,7.112095,-0.508302424863158,0.986517271990601
16,200,7.11211,-0.509288691409971,0.986361815778376
16,200,7.112125,-0.510288922069533,0.986203178462964
16,200,7.11214,-0.511303413721724,0.986041271344131
16,200,7.112155,-0.512332471662371,0.985876002598955
16,200,7.11217,-0.513376409901212,0.985707277149168
16,200,7.112185,-0.514435551472734,0.985534996521848
16,200,7.1122,-0.515510228760258,0.985359058703155
16,200,7.112215,-0.516600783833911,0.985179357984686
16,200,7.11223,-0.517707568803481,0.984995784801991
16,200,7.112245,-0.518830946186271,0.984808225564887
16,200,7.11226,-0.519971289291772,0.984616562478929
16,200,7.112275,-0.521128982622012,0.984420673357832
16,200,7.11229,-0.522304422291847,0.984220431425733
16,200,7.112305,-0.523498016466179,0.984015705109385
16,200,7.11232,-0.524710185817809,0.983806357819159
16,200,7.112335,-0.525941364006198,0.983592247718356
16,200,7.11235,-0.527191998177778,0.983373227480155
16,200,7.112365,-0.528462549489553,0.983149144031368
16,200,7.11238,-0.52975349365732,0.982919838282146
16,200,7.112395,-0.531065321528813,0.98268514484094
16,200,7.11241,-0.53239853968478,0.982444891713506
16,200,7.112425,-0.533753671068208,0.982198899985179
16,200,7.11244,-0.535131255643262,0.981946983485322
16,200,7.112455,-0.536531851087044,0.981688948432564
16,200,7.11247,-0.537956033513463,0.981424593060038
16,200,7.112485,-0.539404398234317,0.981153707218697
16,200,7.1125,-0.540877560556629,0.980876071957844
16,200,7.112515,-0.542376156619927,0.980591459081064
16,200,7.11253,-0.543900844275593,0.980299630675928
16,200,7.112545,-0.545452304010459,0.980000338615772
16,200,7.11256,-0.54703123991767,0.979693324031574
16,200,7.112575,-0.548638380716828,0.979378316751998
16,200,7.11259,-0.550274480827165,0.97905503470928
16,200,7.112605,-0.551940321496431,0.978723183308675
16,200,7.11262,-0.553636711989308,0.978382454758785
16,200,7.112635,-0.55536449083823,0.97803252736021
16,200,7.11265,-0.557124527161287,0.977673064749295
16,200,7.112665,-0.558917722050315,0.977303715094069
16,200,7.11268,-0.560745010035513,0.976924110238378
16,200,7.112695,-0.562607360628547,0.976533864791126
16,200,7.11271,-0.564505779951448,0.976132575156015
16,200,7.112725,-0.566441312455699,0.975719818497649
16,200,7.11274,-0.568415042737899,0.975295151639047
16,200,7.112755,-0.570428097457233,0.974858109885646
16,200,7.11277,-0.572481647362972,0.974408205769846
16,200,7.112785,-0.574576909437055,0.973944927710438
16,200,7.1128,-0.576715149162184,0.97346773857974
16,200,7.112815,-0.578897682920945,0.972976074171852
16,200,7.11283,-0.581125880537146,0.972469341563674
16,200,7.112845,-0.583401167967446,0.971946917360565
16,200,7.11286,-0.585725030153336,0.971408145817397
16,200,7.112875,-0.588099014047661,0.970852336824244
16,200,7.11289,-0.590524731822842,0.970278763746744
16,200,7.112905,-0.593003864277927,0.969686661108211
16,200,7.11292,-0.59553816445567,0.969075222100963
16,200,7.112935,-0.598129461486076,0.96844359591224
16,200,7.11295,-0.600779664672599,0.967790884848978
16,200,7.112965,-0.603490767837387,0.96711614124468
16,200,7.11298,-0.606264853945773,0.966418364129142
16,200,7.112995,-0.609104100029692,0.965696495640784
16,200,7.11301,-0.612010782433063,0.964949417158725
16,200,7.113025,-0.614987282401913,0.964175945130138
16,200,7.11304,-0.618036092044804,0.963374826565834
16,200,7.113055,-0.621159820695483,0.962544734173145
16,200,7.11307,-0.624361201702926,0.961684261094669
16,200,7.113085,-0.627643099684847,0.960791915215853
16,200,7.1131,-0.631008518280144,0.959866113001721
16,200,7.113115,-0.634460608439672,0.958905172818625
16,200,7.11313,-0.638002677294858,0.957907307693395
16,200,7.113145,-0.641638197654319,0.956870617455193
16,200,7.11316,-0.645370818174859,0.955793080201939
16,200,7.113175,-0.649204374260767,0.954672543026202
16,200,7.11319,-0.653142899753906,0.953506711927221
16,200,7.113205,-0.657190639473749,0.952293140830586
16,200,7.11322,-0.661352062680161,0.95102921962618
16,200,7.113235,-0.665631877531645,0.949712161127148
16,200,7.11325,-0.670035046625622,0.948338986839928
16,200,7.113265,-0.674566803703327,0.946906511426729
16,200,7.11328,-0.67923267162133,0.945411325725327
16,200,7.113295,-0.684038481693696,0.943849778177824
16,200,7.11331,-0.688990394517003,0.942217954504248
16,200,7.113325,-0.694094922404157,0.940511655437048
16,200,7.11334,-0.699358953561732,0.93872637231271
16,200,7.113355,-0.7047897781523,0.936857260295526
16,200,7.11337,-0.710395116405272,0.934899108979843
16,200,7.113385,-0.716183148941079,0.93284631009291
16,200,7.1134,-0.722162549491576,0.930692821987759
16,200,7.113415,-0.728342520219443,0.928432130578828
16,200,7.11343,-0.734732829836593,0.92605720634133
16,200,7.113445,-0.741343854760878,0.923560456944205
16,200,7.11346,-0.748186623537629,0.920933675050807
16,200,7.113475,-0.755272864785706,0.918167980764095
16,200,7.11349,-0.762615058933531,0.915253758141345
16,200,7.113505,-0.770226494020732,0.912180585145246
16,200,7.11352,-0.778121325852801,0.908937156334256
16,200,7.113535,-0.786314642794475,0.90551119753177
16,200,7.11355,-0.79482253549382,0.90188937164207
16,200,7.113565,-0.803662171814048,0.898057174714455
16,200,7.11358,-0.812851877235554,0.893998821286565
16,200,7.113595,-0.822411220950424,0.889697117977577
16,200,7.11361,-0.832361107829567,0.885133324242995
16,200,7.113625,-0.84272387635695,0.880286999168342
16,200,7.11364,-0.853523402535723,0.875135833155643
16,200,7.113655,-0.86478520959954,0.869655463388197
16,200,7.11367,-0.876536583194256,0.863819272017054
16,200,7.113685,-0.888806691421393,0.857598166160005
16,200,7.1137,-0.901626708786805,0.850960339047226
16,200,7.113715,-0.915029942686745,0.843871012004667
16,200,7.11373,-0.929051960451295,0.836292157538075
16,200,7.113745,-0.943730714300451,0.828182204534659
16,200,7.11376,-0.95910666060575,0.819495727715048
16,200,7.113775,-0.975222868770852,0.810183124918295
16,200,7.11379,-0.992125113581686,0.800190287815192
16,200,7.113805,-1.0098619432075,0.789458274223797
16,200,7.11382,-1.02848471293128,0.777922993593284
16,200,7.113835,-1.04804757217575,0.765514921557293
16,200,7.11385,-1.06860738951318,0.752158864858386
16,200,7.113865,-1.09022359696458,0.737773804650293
16,200,7.11388,-1.11295793113609,0.722272854256723
16,200,7.113895,-1.13687404472852,0.705563376917928
16,200,7.11391,-1.16203695780054,0.687547319811944
16,200,7.113925,-1.1885123143875,0.668121832183321
16,200,7.11394,-1.21636540701617,0.647180247078216
16,200,7.113955,-1.24565993033427,0.624613516441384
16,200,7.11397,-1.27645642640514,0.600312196176319
16,200,7.113985,-1.30881038967721,0.574169078125537
16,200,7.114,-1.34277001089516,0.546082555787131
16,200,7.114015,-1.37837355810863,0.515960785068339
16,200,7.11403,-1.41564642091782,0.483726655418572
16,200,7.114045,-1.45459788254711,0.449323515367567
16,200,7.11406,-1.49521773269329,0.412721497619553
16,200,7.114075,-1.53747289015828,0.373924164209913
16,200,7.11409,-1.58130426256733,0.332975050715314
16,200,7.114105,-1.62662412193634,0.289963547836109
16,200,7.11412,-1.67331430565005,0.245029446260688
16,200,7.114135,-1.72122554159216,0.198365420774789
16,200,7.11415,-1.77017809557909,0.150216776909305
16,200,7.114165,-1.81996350912414,0.100877953010194
16,200,7.11418,-1.87034365124571,0.0506855654125375
16,200,7.114195,-1.73289468355457,8.3237734247053e-06
16,200,7.11421,1.16958578486128,0.0507666029564845
16,200,7.114225,1.11891585581798,0.101246688373832
16,200,7.11424,1.06865721133991,0.15105051354008
16,200,7.114255,1.01906186248321,0.199821130008803
16,200,7.11427,0.970356274816861,0.24723822679038
16,200,7.114285,0.922741127717961,0.293027198862006
16,200,7.1143,0.876388313085381,0.33696480301681
16,200,7.114315,0.831439080682308,0.378881367674882
16,200,7.11433,0.788003661374844,0.4186598900175
16,200,7.114345,0.746162231768272,0.456232609228035
16,200,7.11436,0.705966945619407,0.491575771206553
16,200,7.114375,0.667444715340767,0.524703309759467
16,200,7.11439,0.630600435934195,0.555660091941976
16,200,7.114405,0.595420383324319,0.584515246939425
16,200,7.11442,0.561875574098732,0.611355951580833
16,200,7.114435,0.529924932188122,0.636281906140899
16,200,7.11445,0.499518162759726,0.659400615815732
16,200,7.114465,0.470598279481758,0.680823502922589
16,200,7.11448,0.443103767112149,0.700662812175874
16,200,7.114495,0.416970386883453,0.71902923305424
16,200,7.11451,0.392132648962097,0.736030143922971
16,200,7.114525,0.368524985834126,0.751768377084142
16,200,7.11454,0.346082664716653,0.766341407500116
16,200,7.114555,0.324742477681604,0.779840876786856
16,200,7.11457,0.304443246262321,0.792352375569693
16,200,7.114585,0.28512617402059,0.803955419475392
16,200,7.1146,0.266735076664182,0.81472356571086
16,200,7.114615,0.249216515122157,0.824724627817494
16,200,7.11463,0.232519853025361,0.834020955374181
16,200,7.114645,0.216597256399242,0.842669753138226
16,200,7.11466,0.201403650090016,0.850723420471602
16,200,7.114675,0.186896642680965,0.858229896957791
16,200,7.11469,0.173036429234491,0.865233004145388
16,200,7.114705,0.15978567924363,0.87177277644483
16,200,7.11472,0.147109415505719,0.877885776595281
16,200,7.114735,0.134974888337159,0.883605392883711
16,200,7.11475,0.123351448441495,0.888962116631649
16,200,7.114765,0.112210420924356,0.893983799401221
16,200,7.11478,0.101524982216879,0.898695890071776
16,200,7.114795,0.0912700412078234,0.903121652368047
16,200,7.11481,0.0814221254163953,0.907282363749207
16,200,7.114825,0.0719592727361765,0.911197496744496
16,200,7.11484,0.0628609290538052,0.914884883913323
16,200,7.114855,0.0541078518435365,0.918360867653323
16,200,7.11487,0.0456820197143443,0.921640436068637
16,200,7.114885,0.0375665477913507,0.924737346074057
16,200,7.1149,0.0297456087366852,0.92766423485873
16,200,7.114915,0.0222043591756528,0.930432720763682
16,200,7.11493,0.0149288712598809,0.933053494556669
16,200,7.114945,0.00790606908797731,0.935536402010954
16,200,7.11496,0.00112366969521771,0.937890518621351
16,200,7.114975,-0.00542987168555553,0.940124217221928
16,200,7.11499,-0.0117654123624488,0.942245229193661
16,200,7.115005,-0.0178931692044827,0.944260699893495
16,200,7.11502,-0.0238227622046372,0.946177238872894
16,200,7.115035,-0.0295632548361707,0.948000965399704
16,200,7.11505,-0.0351231914353602,0.949737549745607
16,200,7.115065,-0.040510631835325,0.951392250657271
16,200,7.11508,-0.0457331834564999,0.952969949385977
16,200,7.115095,-0.0507980310471678,0.95447518061323
16,200,7.11511,-0.0557119642546421,0.955912160576147
16,200,7.115125,-0.0604814031914526,0.957284812664334
16,200,7.11514,-0.0651124221518199,0.958596790733687
16,200,7.115155,-0.069610771623095,0.959851500357654
16,200,7.11517,-0.0739818987200311,0.961052118212687
16,200,7.115185,-0.0782309661646209,0.962201609775983
16,200,7.1152,-0.0823628699252629,0.963302745495849
16,200,7.115215,-0.0863822556139902,0.964358115577261
16,200,7.11523,-0.0902935337418653,0.965370143513322
16,200,7.115245,-0.0941008939157137,0.966341098477952
16,200,7.11526,-0.0978083180566202,0.967273106684762
16,200,7.115275,-0.101419592717822,0.968168161807533
16,200,7.11529,-0.104938320565102,0.969028134546268
16,200,7.115305,-0.108367931085289,0.969854781416559
16,200,7.11532,-0.111711690580515,0.970649752831674
16,200,7.115335,-0.114972711496314,0.971414600538915
16,200,7.11535,-0.118153961143014,0.972150784469596
16,200,7.115365,-0.121258269841075,0.972859679050491
16,200,7.11538,-0.124288338544243,0.973542579026268
16,200,7.115395,-0.127246745970089,0.974200704832954
16,200,7.11541,-0.130135955279553,0.97483520756214
16,200,7.115425,-0.132958320331176,0.975447173549053
16,200,7.11544,-0.13571609154631,0.976037628617377
16,200,7.115455,-0.138411421408052,0.976607542008341
16,200,7.11547,-0.14104636962189,0.977157830020667
16,200,7.115485,-0.143622907960584,0.977689359384777
16,200,7.1155,-0.146142924815752,0.978202950392994
16,200,7.115515,-0.148608229475103,0.978699379805116
16,200,7.11553,-0.151020556143683,0.979179383547275
16,200,7.115545,-0.15338156773,0.979643659221132
16,200,7.11556,-0.15569285940672,0.980092868437095
16,200,7.115575,-0.157955961965739,0.980527638986243
16,200,7.11559,-0.160172344979099,0.980948566862999
16,200,7.115605,-0.162343419779339,0.981356218150127
16,200,7.11562,-0.164470542269193,0.981751130776207
16,200,7.115635,-0.166555015575001,0.982133816155825
16,200,7.11565,-0.168598092549378,0.982504760720399
16,200,7.115665,-0.170600978137083,0.982864427348584
16,200,7.11568,-0.172564831609437,0.98321325670304
16,200,7.115695,-0.174490768677281,0.983551668480711
16,200,7.11571,-0.176379863489502,0.983880062582787
16,200,7.115725,-0.178233150523535,0.984198820210046
16,200,7.11574,-0.180051626376468,0.984508304889166
16,200,7.115755,-0.181836251459758,0.984808863434464
16,200,7.11577,-0.183587951606271,0.985100826850014
16,200,7.115785,-0.185307619592464,0.98538451117593
16,200,7.1158,-0.18699611658305,0.985660218283047
16,200,7.115815,-0.188654273501005,0.985928236619242
16,200,7.11583,-0.190282892327352,0.986188841910725
16,200,7.115845,-0.191882747336361,0.986442297821568
16,200,7.11586,-0.193454586267863,0.98668885657396
16,200,7.115875,-0.194999131441975,0.986928759532072
16,200,7.11589,-0.196517080818037,0.987162237751701
16,200,7.115905,-0.19800910900191,0.987389512498087
16,200,7.11592,-0.199475868204905,0.987610795734041
16,200,7.115935,-0.200917989155512,0.987826290580056
16,200,7.11595,-0.202336081967666,0.988036191748403
16,200,7.115965,-0.203730736967821,0.988240685952783
16,200,7.11598,-0.205102525482867,0.988439952295136
16,200,7.115995,-0.206452000590992,0.988634162630968
16,200,7.11601,-0.207779697837865,0.988823481914617
16,200,7.116025,-0.209086135919255,0.989008068525605
16,200,7.11604,-0.210371817332529,0.989188074577309
16,200,7.116055,-0.211637228998621,0.989363646209035
16,200,7.11607,-0.212882842855438,0.989534923862415
16,200,7.116085,-0.214109116424991,0.989702042543204
16,200,7.1161,-0.215316493354406,0.989865132069135
16,200,7.116115,-0.216505403934477,0.990024317305029
16,200,7.11613,-0.217676265593732,0.990179718385449
16,200,7.116145,-0.218829483371772,0.990331450925977
16,200,7.11616,-0.219965450371782,0.990479626223625
16,200,7.116175,-0.221084548193755,0.99062435144706
16,200,7.11619,-0.222187147348789,0.99076572981717
16,200,7.116205,-0.223273607655927,0.990903860778584
16,200,7.11622,-0.224344278622356,0.991038840162627
16,200,7.116235,-0.225399499807314,0.991170760342186
16,200,7.11625,-0.226439601171006,0.991299710378952
16,200,7.116265,-0.227464903409015,0.99142577616346
16,200,7.11628,-0.228475718272969,0.991549040548325
16,200,7.116295,-0.229472348877758,0.99166958347501
16,200,7.11631,-0.230455089996955,0.991787482094587
16,200,7.116325,-0.231424228345695,0.991902810882673
16,200,7.11634,-0.232380042852124,0.992015641748914
16,200,7.116355,-0.233322804918586,0.992126044141382
16,200,7.11637,-0.234252778671882,0.992234085146023
16,200,7.116385,-0.235170221204131,0.992339829581532
16,200,7.1164,-0.236075382803637,0.992443340089792
16,200,7.116415,-0.236968507177379,0.992544677222215
16,200,7.11643,-0.237849831664596,0.99264389952213
16,200,7.116445,-0.238719587441917,0.99274106360339
16,200,7.11646,-0.239577999721204,0.992836224225508
16,200,7.116475,-0.240425287939504,0.992929434365386
16,200,7.11649,-0.241261665941545,0.993020745285816
16,200,7.116505,-0.242087342156441,0.993110206601065
16,200,7.11652,-0.242902519766462,0.993197866339432
16,200,7.116535,-0.243707396870522,0.993283771003173
16,200,7.11655,-0.244502166641298,0.993367965625787
16,200,7.116565,-0.245287017476356,0.993450493826796
16,200,7.11658,-0.246062133144286,0.99353139786423
16,200,7.116595,-0.246827692925065,0.993610718684819
16,200,7.11661,-0.247583871745717,0.993688495972096
16,200,7.116625,-0.248330840310883,0.993764768192426
16,200,7.11664,-0.249068765228658,0.993839572639122
16,200,7.116655,-0.249797809132593,0.993912945474759
16,200,7.11667,-0.250518130798214,0.99398492177162
16,200,7.116685,-0.251229885256942,0.994055535550628
16,200,7.1167,-0.251933223904835,0.994124819818546
16,200,7.116715,-0.252628294608097,0.994192806603721
