"G_CP [um]","L_CP [um]","Freq [GHz]","mag(S(2,1)) []","ang_rad(S(2,1)) []"
6,200,7.1,0.989895950112883,-0.515493017508529
6,200,7.1000175,0.989794894424279,-0.516234193889028
6,200,7.100035,0.989692259387894,-0.516982905672158
6,200,7.1000525,0.98958801244602,-0.517739267655578
6,200,7.10007,0.989482120205859,-0.518503396963162
6,200,7.1000875,0.989374548413948,-0.519275413103328
6,200,7.100105,0.989265261929592,-0.520055438029719
6,200,7.1001225,0.989154224697362,-0.520843596203565
6,200,7.10014,0.989041399718592,-0.521640014658033
6,200,7.1001575,0.988926749021872,-0.522444823064317
6,200,7.100175,0.988810233632467,-0.523258153799786
6,200,7.1001925,0.988691813540559,-0.524080142018613
6,200,7.10021,0.988571447668353,-0.524910925724371
6,200,7.1002275,0.988449093836037,-0.525750645844456
6,200,7.100245,0.988324708726354,-0.526599446307637
6,200,7.1002625,0.988198247847933,-0.527457474123511
6,200,7.10028,0.988069665497191,-0.528324879464836
6,200,7.1002975,0.98793891471888,-0.529201815751934
6,200,7.100315,0.987805947265041,-0.530088439740463
6,200,7.1003325,0.987670713552472,-0.530984911611423
6,200,7.10035,0.987533162618467,-0.531891395064833
6,200,7.1003675,0.987393242075009,-0.532808057415318
6,200,7.100385,0.98725089806103,-0.533735069691916
6,200,7.1004025,0.987106075192907,-0.534672606740555
6,200,7.10042,0.986958716512962,-0.535620847330279
6,200,7.1004375,0.986808763436029,-0.536579974262405
6,200,7.100455,0.9866561556938,-0.537550174484048
6,200,7.1004725,0.986500831277049,-0.538531639204838
6,200,7.10049,0.986342726375463,-0.53952456401815
6,200,7.1005075,0.986181775315145,-0.540529149025852
6,200,7.100525,0.98601791049354,-0.541545598967662
6,200,7.1005425,0.985851062311738,-0.542574123354781
6,200,7.10056,0.985681159104014,-0.543614936608189
6,200,7.1005775,0.985508127064414,-0.544668258202033
6,200,7.100595,0.985331890170453,-0.545734312811158
6,200,7.1006125,0.985152370103528,-0.546813330464595
6,200,7.10063,0.984969486166073,-0.547905546703953
6,200,7.1006475,0.984783155195138,-0.549011202748116
6,200,7.100665,0.984593291472508,-0.550130545662619
6,200,7.1006825,0.984399806630827,-0.55126382853618
6,200,7.1007,0.98420260955585,-0.552411310662814
6,200,7.1007175,0.984001606284383,-0.553573257731182
6,200,7.100735,0.983796699897943,-0.554749942020132
6,200,7.1007525,0.983587790411731,-0.555941642601795
6,200,7.10077,0.983374774658809,-0.557148645551857
6,200,7.1007875,0.983157546169071,-0.558371244168304
6,200,7.100805,0.982935995043089,-0.559609739197066
6,200,7.1008225,0.98271000782019,-0.560864439067012
6,200,7.10084,0.982479467340711,-0.562135660133429
6,200,7.1008575,0.982244252601968,-0.5634237269312
6,200,7.100875,0.982004238607967,-0.564728972436241
6,200,7.1008925,0.981759296212008,-0.5660517383385
6,200,7.10091,0.981509291952292,-0.567392375324229
6,200,7.1009275,0.981254087879792,-0.568751243370295
6,200,7.100945,0.980993541378397,-0.570128712048511
6,200,7.1009625,0.980727504976513,-0.571525160842864
6,200,7.10098,0.980455826149896,-0.572940979478902
6,200,7.1009975,0.980178347115161,-0.57437656826636
6,200,7.101015,0.97989490461367,-0.575832338454557
6,200,7.1010325,0.979605329684905,-0.577308712603073
6,200,7.10105,0.979309447429178,-0.578806124966327
6,200,7.1010675,0.979007076758644,-0.580325021894892
6,200,7.101085,0.978698030136551,-0.581865862251553
6,200,7.1011025,0.978382113303527,-0.583429117845514
6,200,7.10112,0.978059124990445,-0.585015273884258
6,200,7.1011375,0.977728856617216,-0.586624829443512
6,200,7.101155,0.977391091976337,-0.588258297958058
6,200,7.1011725,0.977045606901018,-0.589916207730936
6,200,7.10119,0.97669216891609,-0.591599102466533
6,200,7.1012075,0.976330536871715,-0.593307541823886
6,200,7.101225,0.975960460557828,-0.595042101996172
6,200,7.1012425,0.975581680299443,-0.596803376312028
6,200,7.10126,0.97519392653057,-0.598591975864923
6,200,7.1012775,0.974796919346087,-0.600408530169327
6,200,7.101295,0.97439036803015,-0.602253687845505
6,200,7.1013125,0.973973970559999,-0.604128117333241
6,200,7.10133,0.973547413083068,-0.606032507638833
6,200,7.1013475,0.973110369366461,-0.607967569114044
6,200,7.101365,0.972662500216668,-0.60993403427063
6,200,7.1013825,0.972203452868184,-0.611932658630311
6,200,7.1014,0.97173286033863,-0.613964221614097
6,200,7.1014175,0.971250340748526,-0.616029527472188
6,200,7.101435,0.970755496603708,-0.618129406255724
6,200,7.1014525,0.970247914037889,-0.620264714833425
6,200,7.10147,0.969727162012838,-0.622436337955496
6,200,7.1014875,0.969192791473704,-0.624645189366618
6,200,7.101505,0.968644334456183,-0.626892212972425
6,200,7.1015225,0.968081303143385,-0.629178384058548
6,200,7.10154,0.967503188868054,-0.631504710569726
6,200,7.1015575,0.966909461057537,-0.633872234448276
6,200,7.101575,0.966299566117113,-0.636282033038151
6,200,7.1015925,0.965672926248255,-0.638735220555414
6,200,7.10161,0.965028938197282,-0.641232949630181
6,200,7.1016275,0.96436697192942,-0.643776412925221
6,200,7.101645,0.963686369224297,-0.646366844831722
6,200,7.1016625,0.962986442186324,-0.649005523251431
6,200,7.10168,0.962266471665882,-0.651693771463762
6,200,7.1016975,0.961525705583503,-0.654432960089419
6,200,7.101715,0.960763357152,-0.657224509149926
6,200,7.1017325,0.959978602988061,-0.660069890234196
6,200,7.10175,0.959170581107945,-0.662970628769938
6,200,7.1017675,0.958338388796396,-0.665928306416275
6,200,7.101785,0.957481080342586,-0.668944563574984
6,200,7.1018025,0.956597664631954,-0.672021102033587
6,200,7.10182,0.955687102585128,-0.675159687743437
6,200,7.1018375,0.954748304432499,-0.678362153742439
6,200,7.101855,0.953780126812494,-0.681630403231932
6,200,7.1018725,0.952781369681646,-0.684966412814119
6,200,7.10189,0.951750773023352,-0.68837223589814
6,200,7.1019075,0.950687013339063,-0.691850006290328
6,200,7.101925,0.949588699908536,-0.695401941971481
6,200,7.1019425,0.948454370800341,-0.69903034907861
6,200,7.10196,0.94728248861636,-0.702737626096595
6,200,7.1019775,0.946071435948928,-0.706526268277967
6,200,7.101995,0.944819510531393,-0.710398872298009
6,200,7.1020125,0.943524920057599,-0.714358141164438
6,200,7.10203,0.942185776648367,-0.718406889388662
6,200,7.1020475,0.940800090936542,-0.722548048440422
6,200,7.102065,0.939365765743608,-0.726784672497787
6,200,7.1020825,0.937880589317126,-0.73111994451048
6,200,7.1021,0.936342228097444,-0.735557182590448
6,200,7.1021175,0.934748218976803,-0.740099846753349
6,200,7.102135,0.933095961015133,-0.744751546023896
6,200,7.1021525,0.931382706570911,-0.749516045928256
6,200,7.10217,0.929605551803993,-0.754397276392818
6,200,7.1021875,0.927761426505303,-0.759399340066673
6,200,7.102205,0.925847083201414,-0.764526521095469
6,200,7.1022225,0.923859085483414,-0.769783294361529
6,200,7.10224,0.921793795500636,-0.775174335219779
6,200,7.1022575,0.919647360563176,-0.78070452974055
6,200,7.102275,0.917415698783447,-0.786378985495897
6,200,7.1022925,0.915094483694797,-0.792203042895821
6,200,7.10231,0.91267912776884,-0.798182287111565
6,200,7.1023275,0.910164764763279,-0.804322560587514
6,200,7.102345,0.907546230813785,-0.810629976177086
6,200,7.1023625,0.904818044191091,-0.817110930908656
6,200,7.10238,0.901974383634757,-0.823772120400533
6,200,7.1023975,0.899009065178832,-0.8306205539247
6,200,7.102415,0.895915517372695,-0.837663570138187
6,200,7.1024325,0.892686754810397,-0.844908853468517
6,200,7.10245,0.889315349873865,-0.852364451151363
6,200,7.1024675,0.88579340260383,-0.860038790894384
6,200,7.102485,0.882112508608418,-0.867940699147515
6,200,7.1025025,0.878263724935261,-0.876079419925535
6,200,7.10252,0.874237533834054,-0.884464634131678
6,200,7.1025375,0.870023804359265,-0.893106479292372
6,200,7.102555,0.865611751774189,-0.90201556960592
6,200,7.1025725,0.86098989474881,-0.911203016166969
6,200,7.10259,0.856146010371113,-0.92068044720736
6,200,7.1026075,0.851067087044814,-0.930460028131764
6,200,7.102625,0.845739275384781,-0.940554481110546
6,200,7.1026425,0.84014783730092,-0.950977103912033
6,200,7.10266,0.834277093535356,-0.961741787608994
6,200,7.1026775,0.828110370031463,-0.972863032698093
6,200,7.102695,0.821629943615126,-0.984355963125153
6,200,7.1027125,0.814816987642122,-0.996236337566149
6,200,7.10273,0.80765151842628,-1.008520557236
6,200,7.1027475,0.800112343480708,-1.02122566936031
6,200,7.102765,0.792177012867104,-1.03436936528487
6,200,7.1027825,0.783821775214468,-1.04796997208602
6,200,7.1028,0.775021540342559,-1.06204643631518
6,200,7.1028175,0.765749850786951,-1.07661829837221
6,200,7.102835,0.755978864998368,-1.09170565574841
6,200,7.1028525,0.745679355456565,-1.10732911321786
6,200,7.10287,0.734820725514116,-1.12350971779625
6,200,7.1028875,0.723371049366893,-1.14026887609284
6,200,7.102905,0.711297140201652,-1.15762825144003
6,200,7.1029225,0.698564652176538,-1.17560963806434
6,200,7.10294,0.685138222572039,-1.19423480935193
6,200,7.1029575,0.67098166098533,-1.21352533725535
6,200,7.102975,0.656058192960638,-1.23350237984496
6,200,7.1029925,0.640330765697519,-1.25418643422451
6,200,7.10301,0.62376242354809,-1.27559705229734
6,200,7.1030275,0.606316760658685,-1.29775251742194
6,200,7.103045,0.587958457300152,-1.32066948075619
6,200,7.1030625,0.568653904936654,-1.34436255722582
6,200,7.10308,0.548371922902822,-1.36884388242718
6,200,7.1030975,0.52708456637678,-1.39412263365854
6,200,7.103115,0.504768021271197,-1.42020452039234
6,200,7.1031325,0.48140357637555,-1.44709125219905
6,200,7.10315,0.456978656936147,-1.47477999493271
6,200,7.1031675,0.431487896670461,-1.50326282918952
6,200,7.103185,0.404934217520169,-1.53252622818316
6,200,7.1032025,0.3773298784962,-1.56255057526621
6,200,7.10322,0.348697447632164,-1.59330974382484
6,200,7.1032375,0.319070644894338,-1.62477076412242
6,200,7.103255,0.288495000033691,-1.65689360228476
6,200,7.1032725,0.257028268670385,-1.68963107576594
6,200,7.10329,0.224740553182765,-1.72292892708261
6,200,7.1033075,0.191714083074328,-1.75672607296016
6,200,7.103325,0.158042622323265,-1.79095503957779
6,200,7.1033425,0.123830488840873,-1.82554258602239
6,200,7.10336,0.0891911921644254,-1.86041050745991
6,200,7.1033775,0.0542457188967128,-1.8954765904456
6,200,7.103395,0.0191205186024347,-1.93065552693181
6,200,7.1034125,0.0160547360138002,1.17573014676427
6,200,7.10343,0.0511495243541153,1.14058558563346
6,200,7.1034475,0.0860348880743235,1.10558756098538
6,200,7.103465,0.120585773045533,1.07082047122816
6,200,7.1034825,0.154683205231345,1.03636508912252
6,200,7.1035,0.188216215203291,1.0022977743888
6,200,7.1035175,0.221083444156205,0.968689583712205
6,200,7.103535,0.253194386416164,0.935605538242284
6,200,7.1035525,0.284470246833973,0.903104074348503
6,200,7.10357,0.314844414204129,0.871236682587334
6,200,7.1035875,0.344262571781198,0.840047729377471
6,200,7.103605,0.372682481982828,0.809574447967669
6,200,7.1036225,0.400073493541847,0.779847079538569
6,200,7.10364,0.4264158258529,0.750889141371999
6,200,7.1036575,0.451699687030651,0.722717797270366
6,200,7.103675,0.475924280449342,0.695344305070284
6,200,7.1036925,0.499096749737884,0.668774517343818
6,200,7.10371,0.521231105713889,0.643009413410361
6,200,7.1037275,0.542347171082133,0.6180456436485
6,200,7.103745,0.562469570910964,0.593876070184022
6,200,7.1037625,0.581626789388104,0.570490291208309
6,200,7.10378,0.599850306527543,0.547875139269978
6,200,7.1037975,0.617173822682858,0.526015146624493
6,200,7.103815,0.633632573873224,0.5048929732097
6,200,7.1038325,0.649262737177675,0.484489794845297
6,200,7.10385,0.664100922635474,0.464785650931552
6,200,7.1038675,0.67818374615028,0.44575975220244
6,200,7.103885,0.691547476657318,0.42739075005239
6,200,7.1039025,0.704227750136104,0.4096569696565
6,200,7.10392,0.716259342849124,0.39253660953182
6,200,7.1039375,0.727675996330069,0.376007910396972
6,200,7.103955,0.738510286942304,0.360049296360287
6,200,7.1039725,0.748793533398159,0.344639491351464
6,200,7.10399,0.758555736148981,0.32975761371526
6,200,7.1040075,0.767825543258353,0.315383251620147
6,200,7.104025,0.776630237943513,0.301496521832981
6,200,7.1040425,0.784995743626232,0.288078114131606
6,200,7.10406,0.792946642872433,0.275109323465829
6,200,7.1040775,0.800506207169108,0.262572071692911
6,200,7.104095,0.807696434925193,0.25044892056531
6,200,7.1041125,0.814538095532001,0.238723077408626
6,200,7.10413,0.821050777673743,0.227378394771491
6,200,7.1041475,0.827252940418987,0.216399365132169
6,200,7.104165,0.833161965881055,0.205771111628597
6,200,7.1041825,0.838794212492092,0.19547937560935
6,200,7.1042,0.844165068112756,0.185510501722503
6,200,7.1042175,0.849289002394746,0.175851421104543
6,200,7.104235,0.854179617928018,0.166489633184837
6,200,7.1042525,0.858849699833926,0.157413186515624
6,200,7.10427,0.863311263561218,0.148610658965863
6,200,7.1042875,0.867575600707293,0.140071137580916
6,200,7.104305,0.871653322766281,0.131784198325318
6,200,7.1043225,0.875554402741074,0.123739885910934
6,200,7.10434,0.879288214607401,0.115928693851864
6,200,7.1043575,0.88286357063341,0.108341544888711
6,200,7.104375,0.886288756605812,0.100969771847613
6,200,7.1043925,0.889571565005109,0.0938050990330321
6,200,7.10441,0.89271932620734,0.0868396241880583
6,200,7.1044275,0.89573893778147,0.0800658010783791
6,200,7.104445,0.898636891974283,0.0734764227068262
6,200,7.1044625,0.901419301463743,0.0670646051867408
6,200,7.10448,0.904091923472986,0.0608237722725169
6,200,7.1044975,0.906660182331092,0.0547476405528311
6,200,7.104515,0.909129190571633,0.0488302052927051
6,200,7.1045325,0.91150376865273,0.0430657269183352
6,200,7.10455,0.913788463383436,0.0374487181264557
6,200,7.1045675,0.915987565133295,0.0319739316094018
6,200,7.104585,0.918105123907105,0.0266363483638907
6,200,7.1046025,0.92014496435299,0.02143116657543
6,200,7.10462,0.922110699777738,0.0163537910456549
6,200,7.1046375,0.924005745229057,0.0113998231559098
6,200,7.104655,0.925833329714246,0.00656505132564309
6,200,7.1046725,0.927596507606354,0.00184544196193461
6,200,7.10469,0.929298169298745,-0.00276286913789363
6,200,7.1047075,0.930941051153159,-0.00726358493585367
6,200,7.104725,0.932527744795088,-0.0116602548916605
6,200,7.1047425,0.934060705797084,-0.0159562822988172
6,200,7.10476,0.935542261794771,-0.0201549312465335
6,200,7.1047775,0.936974620071705,-0.0242593332181819
6,200,7.104795,0.938359874652266,-0.0282724933526269
6,200,7.1048125,0.93970001293501,-0.0321972963819825
6,200,7.10483,0.940996921897781,-0.0360365122619597
6,200,7.1048475,0.942252393905485,-0.0397928015152818
6,200,7.104865,0.943468132145384,-0.0434687202966043
6,200,7.1048825,0.944645755717669,-0.0470667252004232
6,200,7.1049,0.945786804403573,-0.0505891778220186
6,200,7.1049175,0.946892743133696,-0.0540383490869376
6,200,7.104935,0.947964966175391,-0.0574164233567865
6,200,7.1049525,0.949004801060309,-0.060725502329942
6,200,7.10497,0.950013512268342,-0.0639676087443347
6,200,7.1049875,0.950992304684569,-0.0671446898935997
6,200,7.105005,0.951942326843827,-0.0702586209650548
6,200,7.1050225,0.952864673978548,-0.0733112082137615
6,200,7.10504,0.953760390881411,-0.0763041919766843
6,200,7.1050575,0.954630474595965,-0.0792392495386851
6,200,7.105075,0.955475876945671,-0.0821179978553108
6,200,7.1050925,0.956297506913138,-0.0849419961440747
6,200,7.10511,0.957096232878057,-0.0877127483471865
6,200,7.1051275,0.957872884724287,-0.0904317054768549
6,200,7.105145,0.95862825582281,-0.0931002678435168
6,200,7.1051625,0.959363104900663,-0.0957197871807673
6,200,7.10518,0.960078157801032,-0.0982915686649174
6,200,7.1051975,0.960774109143306,-0.10081687284161
6,200,7.105215,0.96145162388762,-0.103296917457827
6,200,7.1052325,0.962111338811471,-0.105732879210027
6,200,7.10525,0.962753863902726,-0.108125895408533
6,200,7.1052675,0.96337978367527,-0.11047706556627
6,200,7.105285,0.9639896584107,-0.112787452910816
6,200,7.1053025,0.964584025332191,-0.115058085829491
6,200,7.10532,0.965163399713547,-0.117289959246744
6,200,7.1053375,0.965728275927716,-0.119484035938494
6,200,7.105355,0.966279128438715,-0.121641247787868
6,200,7.1053725,0.966816412739813,-0.123762496983005
6,200,7.10539,0.967340566241674,-0.12584865716185
6,200,7.1054075,0.9678520091131,-0.127900574505295
6,200,7.105425,0.968351145077748,-0.129919068783443
6,200,7.1054425,0.968838362168257,-0.131904934352801
6,200,7.10546,0.969314033441595,-0.133858941112142
6,200,7.1054775,0.969778517657058,-0.135781835415667
6,200,7.105495,0.970232159919501,-0.137674340947439
6,200,7.1055125,0.97067529228915,-0.1395371595561
6,200,7.10553,0.971108234360878,-0.141370972056088
6,200,7.1055475,0.971531293813795,-0.143176438993024
6,200,7.105565,0.971944766933521,-0.14495420137816
6,200,7.1055825,0.972348939107922,-0.146704881389972
6,200,7.1056,0.972744085298605,-0.14842908304806
6,200,7.1056175,0.973130470488863,-0.150127392857787
6,200,7.105635,0.973508350109873,-0.151800380429292
6,200,7.1056525,0.973877970445791,-0.153448599069601
6,200,7.10567,0.974239569019512,-0.155072586351855
6,200,7.1056875,0.974593374959587,-0.156672864660212
6,200,7.105705,0.974939609349837,-0.158249941713989
6,200,7.1057225,0.975278485561972,-0.159804311069039
6,200,7.10574,0.975610209572722,-0.161336452600252
6,200,7.1057575,0.97593498026595,-0.162846832964424
6,200,7.105775,0.976252989720762,-0.164335906045382
6,200,7.1057925,0.976564423485916,-0.165804113380117
6,200,7.10581,0.976869460841823,-0.167251884569625
6,200,7.1058275,0.977168275050488,-0.16867963767354
6,200,7.105845,0.97746103359385,-0.170087779588706
6,200,7.1058625,0.977747898401534,-0.171476706414259
6,200,7.10588,0.97802902606806,-0.17284680380153
6,200,7.1058975,0.978304568060545,-0.174198447291733
6,200,7.105915,0.978574670916937,-0.17553200263995
6,200,7.1059325,0.978839476435666,-0.176847826127997
6,200,7.10595,0.979099121856664,-0.178146264864178
6,200,7.1059675,0.979353740034628,-0.179427657072905
6,200,7.105985,0.979603459604686,-0.180692332373279
6,200,7.1060025,0.979848405140895,-0.181940612047616
6,200,7.10602,0.980088697307782,-0.183172809299417
6,200,7.1060375,0.980324453005554,-0.184389229502877
6,200,7.106055,0.980555785508968,-0.185590170442513
6,200,7.1060725,0.980782804600479,-0.186775922545136
6,200,7.10609,0.98100561669756,-0.187946769102255
6,200,7.1061075,0.981224324974839,-0.189102986485514
6,200,7.106125,0.981439029481048,-0.190244844353891
6,200,7.1061425,0.981649827251296,-0.191372605854574
6,200,7.10616,0.981856812414408,-0.192486527815142
6,200,7.1061775,0.982060076296107,-0.193586860930397
6,200,7.106195,0.982259707517891,-0.19467384994216
6,200,7.1062125,0.982455792091975,-0.195747733813327
6,200,7.10623,0.982648413512203,-0.196808745894831
6,200,7.1062475,0.982837652841534,-0.197857114088146
6,200,7.106265,0.983023588795903,-0.198893061001544
6,200,7.1062825,0.983206297824822,-0.199916804101464
6,200,7.1063,0.983385854188693,-0.200928555858203
6,200,7.1063175,0.983562330033175,-0.201928523887275
6,200,7.106335,0.983735795460603,-0.202916911085804
6,200,7.1063525,0.983906318598697,-0.203893915764822
6,200,7.10637,0.984073965666432,-0.204859731776155
6,200,7.1063875,0.984238801037575,-0.205814548636309
6,200,7.106405,0.984400887301683,-0.206758551645723
6,200,7.1064225,0.984560285322766,-0.207691922004064
6,200,7.10644,0.984717054295803,-0.208614836922256
6,200,7.1064575,0.984871251801032,-0.209527469730364
6,200,7.106475,0.985022933856259,-0.21042998998235
6,200,7.1064925,0.985172154967181,-0.211322563557276
6,200,7.10651,0.985318968175923,-0.212205352757835
6,200,7.1065275,0.985463425107633,-0.213078516404885
6,200,7.106545,0.985605576015478,-0.213942209929689
6,200,7.1065625,0.985745469823954,-0.214796585463029
6,200,7.10658,0.985883154170667,-0.215641791921904
6,200,7.1065975,0.986018675446466,-0.216477975092659
6,200,7.106615,0.986152078834287,-0.217305277712534
6,200,7.1066325,0.986283408346498,-0.218123839548166
6,200,7.10665,0.986412706860987,-0.218933797472039
6,200,7.1066675,0.986540016155851,-0.219735285535931
6,200,7.106685,0.986665376943006,-0.220528435043167
6,200,7.1067025,0.986788828900464,-0.221313374617591
