"G_CP [um]","L_CP [um]","Freq [GHz]","mag(S(2,1)) []","ang_rad(S(2,1)) []"
1,200,7.08,0.998329071306516,-0.449850162552037
1,200,7.08015,0.998291444113416,-0.450549165701486
1,200,7.0803,0.998252616755774,-0.451261211662256
1,200,7.08045,0.99821254084448,-0.451986672503238
1,200,7.0806,0.998171165586222,-0.45272593455284
1,200,7.08075,0.998128437640488,-0.453479399087337
1,200,7.0809,0.99808430096664,-0.454247483059351
1,200,7.08105,0.998038696660229,-0.455030619869316
1,200,7.0812,0.997991562777728,-0.455829260182797
1,200,7.08135,0.997942834148693,-0.456643872796967
1,200,7.0815,0.997892442174361,-0.457474945559683
1,200,7.08165,0.997840314611528,-0.458322986344841
1,200,7.0818,0.997786375340482,-0.45918852408823
1,200,7.08195,0.997730544115649,-0.460072109888097
1,200,7.0821,0.997672736297457,-0.46097431817537
1,200,7.08225,0.997612862563801,-0.461895747958548
1,200,7.0824,0.997550828599322,-0.462837024149007
1,200,7.08255,0.997486534760541,-0.46379879897275
1,200,7.0827,0.9974198757147,-0.464781753475232
1,200,7.08285,0.997350740049907,-0.465786599126543
1,200,7.083,0.997279009854011,-0.466814079534721
1,200,7.08315,0.997204560259273,-0.467864972275891
1,200,7.0833,0.997127258949676,-0.468940090850468
1,200,7.08345,0.997046965627331,-0.47004028677573
1,200,7.0836,0.996963531434067,-0.471166451825969
1,200,7.08375,0.996876798323901,-0.472319520432312
1,200,7.0839,0.99678659838155,-0.473500472255839
1,200,7.08405,0.996692753081692,-0.474710334948478
1,200,7.0842,0.996595072482998,-0.475950187118035
1,200,7.08435,0.99649335435037,-0.477221161514922
1,200,7.0845,0.996387383197999,-0.478524448460213
1,200,7.08465,0.996276929245017,-0.479861299536572
1,200,7.0848,0.996161747274569,-0.481233031565587
1,200,7.08495,0.996041575386007,-0.482641030897948
1,200,7.0851,0.995916133628687,-0.48408675804516
1,200,7.08525,0.99578512250441,-0.485571752685057
1,200,7.0854,0.995648221323996,-0.4870976390764
1,200,7.08555,0.995505086401573,-0.488666131922134
1,200,7.0857,0.995355349068179,-0.490279042724871
1,200,7.08585,0.99519861348378,-0.491938286683442
1,200,7.086,0.995034454224173,-0.493645890184684
1,200,7.08615,0.994862413616072,-0.495403998950852
1,200,7.0863,0.994681998790056,-0.497214886910473
1,200,7.08645,0.994492678416996,-0.499080965867993
1,200,7.0866,0.994293879088703,-0.501004796057216
1,200,7.08675,0.994084981298134,-0.502989097673394
1,200,7.0869,0.993865314968015,-0.505036763491068
1,200,7.08705,0.993634154469386,-0.507150872687992
1,200,7.0872,0.993390713062965,-0.509334706010755
1,200,7.08735,0.993134136686131,-0.511591762435814
1,200,7.0875,0.992863496996712,-0.513925777499164
1,200,7.08765,0.992577783570922,-0.516340743491887
1,200,7.0878,0.992275895136813,-0.518840931744962
1,200,7.08795,0.991956629705598,-0.521430917257985
1,200,7.0881,0.991618673440921,-0.524115605962219
1,200,7.08825,0.991260588079786,-0.526900264949454
1,200,7.0884,0.990880796687517,-0.529790556047026
1,200,7.08855,0.990477567492104,-0.532792573174517
1,200,7.0887,0.990048995498838,-0.535912883984133
1,200,7.08885,0.989592981533384,-0.539158576362379
1,200,7.089,0.989107208297905,-0.542537310461347
1,200,7.08915,0.988589112948601,-0.54605737703319
1,200,7.0893,0.988035855611138,-0.549727762965651
1,200,7.08945,0.987444283138968,-0.553558225064874
1,200,7.0896,0.986810887284653,-0.557559373304802
1,200,7.08975,0.98613175628951,-0.561742764971591
1,200,7.0899,0.985402518695919,-0.566121011377401
1,200,7.09005,0.98461827793965,-0.570707899114835
1,200,7.0902,0.98377353597576,-0.575518528177257
1,200,7.09035,0.982862103816051,-0.58056946969617
1,200,7.0905,0.981876996389721,-0.585878946562462
1,200,7.09065,0.980810308558559,-0.591467040818292
1,200,7.0908,0.979653068391318,-0.597355932463195
1,200,7.09095,0.978395062889927,-0.603570175234413
1,200,7.0911,0.977024630209062,-0.61013701604407
1,200,7.09125,0.975528410953012,-0.617086766126387
1,200,7.0914,0.973891049278777,-0.624453233632379
1,200,7.09155,0.972094832164147,-0.632274229481401
1,200,7.0917,0.970119252157957,-0.640592160831945
1,200,7.09185,0.967940475009108,-0.64945472969161
1,200,7.092,0.965530688498203,-0.658915758087046
1,200,7.09215,0.962857302204419,-0.66903616604699
1,200,7.0923,0.959881959347478,-0.679885134626014
1,200,7.09245,0.95655931060796,-0.691541493570511
1,200,7.0926,0.952835485099384,-0.704095382298957
1,200,7.09275,0.948646174336918,-0.717650243929134
1,200,7.0929,0.943914219685737,-0.732325225432078
1,200,7.09305,0.938546560584,-0.748258072766285
1,200,7.0932,0.932430357654736,-0.765608627909048
1,200,7.09335,0.925428049259797,-0.784563054225563
1,200,7.0935,0.91737102992461,-0.805338935466338
1,200,7.09365,0.908051553496728,-0.828191407196346
1,200,7.0938,0.897212365763193,-0.853420478289341
1,200,7.09395,0.884533472226692,-0.881379666564827
1,200,7.0941,0.86961537757316,-0.91248597414391
1,200,7.09425,0.85195816339986,-0.947231006914514
1,200,7.0944,0.830936043906382,-0.986192599469102
1,200,7.09455,0.805767835211089,-1.03004547965643
1,200,7.0947,0.775485600958817,-1.0795680483297
1,200,7.09485,0.738907436735505,-1.1356399313487
1,200,7.095,0.694627114850216,-1.19922127115295
1,200,7.09515,0.641044242268838,-1.27129982422445
1,200,7.0953,0.576473110702907,-1.35278713102754
1,200,7.09545,0.499380326885482,-1.44434450048511
1,200,7.0956,0.408792652884928,-1.54613195941754
1,200,7.09575,0.304856179958469,-1.65750995567774
1,200,7.0959,0.189394718607305,-1.77678625788861
1,200,7.09605,0.0661599990441763,-1.90115803011046
1,200,7.0962,0.0595445712239228,1.11461228159781
1,200,7.09635,0.181897444621777,0.991242137698692
1,200,7.0965,0.29583377056476,0.873795589101043
1,200,7.09665,0.397960209473018,0.764797576219719
1,200,7.0968,0.486785686446408,0.665649863988148
1,200,7.09695,0.562384839900968,0.576755296538587
1,200,7.0971,0.625828590440763,0.497795454601648
1,200,7.09725,0.678657178850821,0.428022691759527
1,200,7.0974,0.722512879795267,0.366491994244736
1,200,7.09755,0.7589335116057,0.312215221072317
1,200,7.0977,0.789261981915322,0.264249699734394
1,200,7.09785,0.814624710905674,0.221741108646804
1,200,7.098,0.835944661000985,0.183938303293523
1,200,7.09815,0.853968267524834,0.15019266530985
1,200,7.0983,0.869295319838409,0.119949914923692
1,200,7.09845,0.882406744815288,0.0927389877984164
1,200,7.0986,0.893688435205607,0.0681604428289933
1,200,7.09875,0.903450826352005,0.0458756021974603
1,200,7.0989,0.911944596805466,0.0255969178877375
1,200,7.09905,0.919373092255501,0.00707968625384294
1,200,7.0992,0.925902088669516,-0.00988494949055537
1,200,7.09935,0.931667443097596,-0.0254758462617189
1,200,7.0995,0.936781088696785,-0.0398467177243488
1,200,7.09965,0.941335740436388,-0.0531301567449384
1,200,7.0998,0.945408599615567,-0.0654409643280517
1,200,7.09995,0.949064281103648,-0.0768789063401786
1,200,7.1001,0.952357136233733,-0.0875310000418961
1,200,7.10025,0.955333104558883,-0.0974734149427316
1,200,7.1004,0.958031197054526,-0.106773057349394
1,200,7.10055,0.960484689873694,-0.115488895253239
1,200,7.1007,0.962722089805563,-0.123673069685653
1,200,7.10085,0.964767918858909,-0.131371830072762
1,200,7.101,0.966643354882026,-0.138626324137722
1,200,7.10115,0.968366757065944,-0.145473267244538
1,200,7.1013,0.969954098971184,-0.151945511507375
1,200,7.10145,0.971419326925178,-0.158072531297635
1,200,7.1016,0.972774657921058,-0.163880838793104
1,200,7.10175,0.974030828256683,-0.169394340797778
1,200,7.1019,0.975197301891277,-0.174634646096695
1,200,7.10205,0.976282445722567,-0.17962133101484
1,200,7.1022,0.977293677588387,-0.184372169548758
1,200,7.10235,0.978237591688683,-0.188903333373843
1,200,7.1025,0.979120065243805,-0.193229566160044
1,200,7.10265,0.979946349501521,-0.19736433590953
1,200,7.1028,0.980721147641889,-0.201319968439182
1,200,7.10295,0.981448681675415,-0.205107764640486
1,200,7.1031,0.982132750063549,-0.208738103743713
1,200,7.10325,0.982776777493245,-0.212220534474937
1,200,7.1034,0.983383857995309,-0.215563855712146
1,200,7.10355,0.98395679239854,-0.218776188010809
1,200,7.1037,0.984498120949368,-0.221865037170035
1,200,7.10385,0.985010151793453,-0.224837350844761
1,200,7.104,0.985494985905371,-0.227699569067352
1,200,7.10415,0.985954538961291,-0.230457669423087
1,200,7.1043,0.986390560573761,-0.233117207522842
1,200,7.10445,0.986804651244381,-0.235683353329529
1,200,7.1046,0.987198277337494,-0.23816092382244
1,200,7.10475,0.987572784333444,-0.240554412419246
1,200,7.1049,0.987929408582943,-0.242868015523037
1,200,7.10505,0.988269287752485,-0.245105656514356
1,200,7.1052,0.988593470124227,-0.247271007468695
1,200,7.10535,0.988902922891337,-0.249367508845925
1,200,7.1055,0.989198539570491,-0.251398387367528
1,200,7.10565,0.989481146637066,-0.253366672272404
1,200,7.1058,0.989751509474521,-0.255275210119096
1,200,7.10595,0.990010337717648,-0.257126678283268
1,200,7.1061,0.990258290059083,-0.25892359728184
1,200,7.10625,0.990495978579685,-0.260668342040475
1,200,7.1064,0.990723972655855,-0.262363152208202
1,200,7.10655,0.990942802490248,-0.264010141611223
1,200,7.1067,0.9911529623068,-0.265611306928554
1,200,7.10685,0.991354913245922,-0.267168535662447
1,200,7.107,0.991549085991607,-0.268683613469687
1,200,7.10715,0.991735883158381,-0.270158230912274
1,200,7.1073,0.991915681462826,-0.271593989680193
1,200,7.10745,0.992088833701631,-0.272992408333923
1,200,7.1076,0.992255670555542,-0.27435492760879
1,200,7.10775,0.99241650223656,-0.275682915320008
1,200,7.1079,0.99257161999367,-0.276977670902359
1,200,7.10805,0.992721297490891,-0.278240429616356
1,200,7.1082,0.992865792069801,-0.279472366448547
1,200,7.10835,0.993005345907496,-0.2806745997318
1,200,7.1085,0.993140187079772,-0.281848194508563
1,200,7.10865,0.993270530538244,-0.282994165658033
1,200,7.1088,0.993396579009331,-0.28411348080639
1,200,7.10895,0.993518523822117,-0.285207063037341
1,200,7.1091,0.99363654567147,-0.286275793418696
1,200,7.10925,0.993750815322138,-0.287320513359464
1,200,7.1094,0.993861494258972,-0.288342026810347
1,200,7.10955,0.99396873528795,-0.289341102319812
1,200,7.1097,0.994072683092205,-0.290318474956524
1,200,7.10985,0.994173474746867,-0.291274848108206
1,200,7.11,0.994271240196166,-0.29221089516597
1,200,7.11015,0.994366102695942,-0.293127261102664
1,200,7.1103,0.994458179224375,-0.294024563952784
1,200,7.11045,0.994547580863541,-0.294903396201094
1,200,7.1106,0.994634413154132,-0.295764326086449
1,200,7.11075,0.994718776425469,-0.296607898826691
1,200,7.1109,0.994800766102766,-0.29743463777026
1,200,7.11105,0.994880472993425,-0.298245045479489
1,200,7.1112,0.994957983553964,-0.299039604750261
1,200,7.11135,0.995033380139088,-0.299818779572379
1,200,7.1115,0.995106741234233,-0.300583016034552
1,200,7.11165,0.995178141672841,-0.301332743177757
1,200,7.1118,0.995247652839497,-0.302068373800337
1,200,7.11195,0.995315342859967,-0.302790305217992
1,200,7.1121,0.995381276779107,-0.30349891998155
1,200,7.11225,0.995445516727501,-0.304194586555254
1,200,7.1124,0.995508122077658,-0.304877659958093
1,200,7.11255,0.9955691495905,-0.305548482370439
1,200,7.1127,0.995628653552821,-0.306207383708225
1,200,7.11285,0.995686685906361,-0.306854682166579
1,200,7.113,0.995743296369061,-0.30749068473491
1,200,7.11315,0.995798532549051,-0.308115687685051
1,200,7.1133,0.995852440051854,-0.30872997703422
1,200,7.11345,0.995905062581267,-0.309333828984128
1,200,7.1136,0.995956442034344,-0.309927510337847
1,200,7.11375,0.996006618590878,-0.310511278895578
1,200,7.1139,0.996055630797726,-0.311085383830648
1,200,7.11405,0.996103515648341,-0.311650066046866
1,200,7.1142,0.99615030865779,-0.312205558518217
1,200,7.11435,0.996196043933575,-0.312752086612049
1,200,7.1145,0.996240754242511,-0.313289868396561
1,200,7.11465,0.996284471073909,-0.313819114933528
1,200,7.1148,0.996327224699307,-0.314340030557082
1,200,7.11495,0.996369044228946,-0.314852813139265
1,200,7.1151,0.99640995766521,-0.31535765434317
1,200,7.11525,0.996449991953205,-0.315854739864244
1,200,7.1154,0.996489173028656,-0.316344249660495
1,200,7.11555,0.996527525863276,-0.316826358172061
1,200,7.1157,0.996565074507771,-0.317301234530857
1,200,7.11585,0.996601842132611,-0.317769042760701
1,200,7.116,0.996637851066701,-0.318229941968488
1,200,7.11615,0.996673122834082,-0.318684086526857
1,200,7.1163,0.996707678188761,-0.319131626248745
1,200,7.11645,0.996741537147797,-0.319572706554332
1,200,7.1166,0.996774719022729,-0.320007468630681
1,200,7.11675,0.996807242449441,-0.320436049584485
1,200,7.1169,0.996839125416566,-0.320858582588274
1,200,7.11705,0.99687038529249,-0.321275197020332
1,200,7.1172,0.996901038851053,-0.321686018598755
1,200,7.11735,0.996931102296,-0.32209116950982
1,200,7.1175,0.99696059128428,-0.322490768531049
1,200,7.11765,0.996989520948213,-0.322884931149099
1,200,7.1178,0.997017905916629,-0.323273769672857
1,200,7.11795,0.99704576033501,-0.323657393341885
1,200,7.1181,0.997073097884688,-0.324035908430447
1,200,7.11825,0.997099931801165,-0.324409418347373
1,200,7.1184,0.99712627489158,-0.324778023731864
1,200,7.11855,0.997152139551392,-0.325141822545539
1,200,7.1187,0.997177537780291,-0.325500910160799
1,200,7.11885,0.997202481197405,-0.325855379445731
1,200,7.119,0.997226981055821,-0.326205320845719
1,200,7.11915,0.997251048256462,-0.32655082246183
1,200,7.1193,0.997274693361346,-0.326891970126237
1,200,7.11945,0.997297926606272,-0.327228847474717
1,200,7.1196,0.997320757912947,-0.327561536016414
1,200,7.11975,0.997343196900586,-0.327890115200932
1,200,7.1199,0.997365252897017,-0.328214662482928
1,200,7.12005,0.997386934949309,-0.328535253384283
1,200,7.1202,0.997408251833948,-0.328851961553975
1,200,7.12035,0.997429212066584,-0.329164858825726
1,200,7.1205,0.997449823911364,-0.329474015273543
1,200,7.12065,0.997470095389884,-0.329779499265231
1,200,7.1208,0.99749003428976,-0.330081377513969
1,200,7.12095,0.997509648172854,-0.330379715128028
1,200,7.1211,0.99752894438316,-0.330674575658714
1,200,7.12125,0.997547930054362,-0.330966021146581
1,200,7.1214,0.997566612117097,-0.331254112166038
1,200,7.12155,0.99758499730592,-0.331538907868367
1,200,7.1217,0.997603092165991,-0.331820466023253
1,200,7.12185,0.997620903059489,-0.332098843058839
1,200,7.122,0.997638436171791,-0.332374094100431
1,200,7.12215,0.997655697517385,-0.332646273007854
1,200,7.1223,0.997672692945566,-0.332915432411527
1,200,7.12245,0.997689428145912,-0.333181623747333
1,200,7.1226,0.997705908653536,-0.333444897290277
1,200,7.12275,0.997722139854149,-0.333705302187041
1,200,7.1229,0.997738126988923,-0.333962886487437
1,200,7.12305,0.997753875159168,-0.33421769717482
1,200,7.1232,0.997769389330837,-0.334469780195495
1,200,7.12335,0.997784674338859,-0.334719180487149
1,200,7.1235,0.99779973489131,-0.334965942006363
1,200,7.12365,0.997814575573428,-0.335210107755219
1,200,7.1238,0.997829200851482,-0.335451719807066
1,200,7.12395,0.997843615076498,-0.335690819331431
1,200,7.1241,0.997857822487847,-0.335927446618146
1,200,7.12425,0.997871827216705,-0.336161641100708
1,200,7.1244,0.997885633289383,-0.336393441378895
1,200,7.12455,0.997899244630547,-0.336622885240678
1,200,7.1247,0.99791266506631,-0.336850009683425
1,200,7.12485,0.997925898327224,-0.337074850934469
1,200,7.125,0.997938948051161,-0.337297444471022
1,200,7.12515,0.997951817786094,-0.337517825039478
1,200,7.1253,0.99796451099278,-0.337736026674135
1,200,7.12545,0.99797703104735,-0.337952082715315
1,200,7.1256,0.997989381243808,-0.33816602582697
1,200,7.12575,0.998001564796446,-0.338377888013729
1,200,7.1259,0.998013584842173,-0.338587700637448
1,200,7.12605,0.998025444442766,-0.338795494433249
1,200,7.1262,0.998037146587046,-0.339001299525095
1,200,7.12635,0.998048694192978,-0.339205145440898
1,200,7.1265,0.998060090109699,-0.339407061127178
1,200,7.12665,0.998071337119485,-0.339607074963305
1,200,7.1268,0.998082437939641,-0.339805214775295
1,200,7.12695,0.998093395224342,-0.340001507849245
1,200,7.1271,0.9981042115664,-0.340195980944346
1,200,7.12725,0.998114889498983,-0.34038866030554
1,200,7.1274,0.998125431497274,-0.34057957167581
1,200,7.12755,0.998135839980073,-0.340768740308109
1,200,7.1277,0.998146117311351,-0.340956190976966
1,200,7.12785,0.998156265801757,-0.341141947989755
1,200,7.128,0.998166287710067,-0.341326035197656
1,200,7.12815,0.998176185244594,-0.34150847600629
1,200,7.1283,0.998185960564557,-0.341689293386077
1,200,7.12845,0.998195615781392,-0.341868509882301
1,200,7.1286,0.99820515296004,-0.342046147624891
1,200,7.12875,0.998214574120179,-0.342222228337947
1,200,7.1289,0.998223881237431,-0.342396773348985
1,200,7.12905,0.998233076244518,-0.342569803597949
1,200,7.1292,0.998242161032395,-0.342741339645968
1,200,7.12935,0.998251137451337,-0.342911401683881
1,200,7.1295,0.998260007312004,-0.343080009540537
1,200,7.12965,0.998268772386464,-0.343247182690858
1,200,7.1298,0.998277434409188,-0.343412940263703
1,200,7.12995,0.998285995078017,-0.343577301049518
1,200,7.1301,0.998294456055101,-0.343740283507785
1,200,7.13025,0.998302818967803,-0.343901905774266
1,200,7.1304,0.99831108540958,-0.344062185668076
1,200,7.13055,0.998319256940845,-0.344221140698552
1,200,7.1307,0.998327335089791,-0.344378788071956
1,200,7.13085,0.998335321353195,-0.344535144698011
1,200,7.131,0.998343217197209,-0.344690227196239
1,200,7.13115,0.998351024058108,-0.344844051902178
1,200,7.1313,0.998358743343035,-0.344996634873407
1,200,7.13145,0.998366376430715,-0.345147991895437
1,200,7.1316,0.998373924672148,-0.345298138487443
1,200,7.13175,0.998381389391288,-0.345447089907857
1,200,7.1319,0.998388771885695,-0.345594861159818
1,200,7.13205,0.998396073427177,-0.345741466996488
1,200,7.1322,0.998403295262404,-0.34588692192624
1,200,7.13235,0.998410438613516,-0.346031240217701
1,200,7.1325,0.998417504678702,-0.346174435904689
1,200,7.13265,0.998424494632775,-0.346316522791023
1,200,7.1328,0.99843140962772,-0.346457514455207
1,200,7.13295,0.998438250793231,-0.346597424255019
1,200,7.1331,0.99844501923724,-0.346736265331961
1,200,7.13325,0.998451716046418,-0.346874050615631
1,200,7.1334,0.998458342286676,-0.347010792827964
1,200,7.13355,0.998464899003638,-0.347146504487392
1,200,7.1337,0.998471387223119,-0.347281197912893
1,200,7.13385,0.998477807951572,-0.347414885227939
1,200,7.134,0.998484162176533,-0.347547578364371
1,200,7.13415,0.998490450867056,-0.347679289066157
1,200,7.1343,0.998496674974129,-0.347810028893083
1,200,7.13445,0.99850283543108,-0.347939809224343
1,200,7.1346,0.998508933153982,-0.348068641262052
1,200,7.13475,0.998514969042034,-0.348196536034676
1,200,7.1349,0.998520943977938,-0.348323504400383
1,200,7.13505,0.998526858828273,-0.348449557050321
1,200,7.1352,0.998532714443842,-0.348574704511805
1,200,7.13535,0.998538511660029,-0.348698957151454
1,200,7.1355,0.998544251297134,-0.348822325178237
1,200,7.13565,0.998549934160703,-0.348944818646462
1,200,7.1358,0.998555561041853,-0.34906644745869
1,200,7.13595,0.998561132717583,-0.349187221368588
1,200,7.1361,0.998566649951081,-0.349307149983715
1,200,7.13625,0.998572113492021,-0.349426242768245
1,200,7.1364,0.998577524076855,-0.349544509045639
1,200,7.13655,0.998582882429094,-0.34966195800124
1,200,7.1367,0.998588189259586,-0.349778598684825
1,200,7.13685,0.998593445266784,-0.349894440013097
1,200,7.137,0.998598651137007,-0.350009490772117
1,200,7.13715,0.998603807544701,-0.350123759619696
1,200,7.1373,0.998608915152682,-0.350237255087716
1,200,7.13745,0.998613974612382,-0.350349985584415
1,200,7.1376,0.998618986564088,-0.350461959396617
1,200,7.13775,0.998623951637172,-0.350573184691921
1,200,7.1379,0.998628870450318,-0.350683669520827
1,200,7.13805,0.998633743611741,-0.350793421818832
1,200,7.1382,0.998638571719402,-0.350902449408477
1,200,7.13835,0.99864335536122,-0.351010760001345
1,200,7.1385,0.998648095115275,-0.351118361200026
1,200,7.13865,0.99865279155001,-0.351225260500029
1,200,7.1388,0.998657445224422,-0.351331465291667
1,200,7.13895,0.998662056688258,-0.351436982861888
1,200,7.1391,0.998666626482198,-0.351541820396082
1,200,7.13925,0.998671155138036,-0.351645984979844
1,200,7.1394,0.998675643178861,-0.351749483600691
