"G_CP [um]","L_CP [um]","Freq [GHz]","ang_rad(S(2,1)) []","mag(S(2,1)) []"
11,200,7.113,-0.435844713019617,0.996049037587619
11,200,7.113025,-0.436149859488797,0.996025845638385
11,200,7.11305,-0.436457815141123,0.996002346106002
11,200,7.113075,-0.436768619057247,0.995978533406772
11,200,7.1131,-0.437082311044979,0.995954401828654
11,200,7.113125,-0.437398931656279,0.995929945527694
11,200,7.11315,-0.437718522204655,0.995905158524339
11,200,7.113175,-0.438041124783239,0.995880034699625
11,200,7.1132,-0.438366782283042,0.995854567791252
11,200,7.113225,-0.43869553841205,0.995828751389518
11,200,7.11325,-0.43902743771467,0.995802578933121
11,200,7.113275,-0.439362525591844,0.995776043704819
11,200,7.1133,-0.439700848321725,0.995749138826946
11,200,7.113325,-0.440042453080835,0.99572185725678
11,200,7.11335,-0.440387387966025,0.995694191781747
11,200,7.113375,-0.440735702016932,0.995666135014468
11,200,7.1134,-0.441087445239169,0.995637679387632
11,200,7.113425,-0.441442668628269,0.995608817148685
11,200,7.11345,-0.441801424194086,0.99557954035436
11,200,7.113475,-0.442163764986259,0.99554984086499
11,200,7.1135,-0.442529745120182,0.995519710338635
11,200,7.113525,-0.442899419803888,0.995489140225001
11,200,7.11355,-0.443272845365758,0.995458121759143
11,200,7.113575,-0.443650079282933,0.99542664595495
11,200,7.1136,-0.444031180210772,0.995394703598389
11,200,7.113625,-0.44441620801312,0.995362285240513
11,200,7.11365,-0.444805223793517,0.995329381190217
11,200,7.113675,-0.44519828992746,0.995295981506721
11,200,7.1137,-0.445595470095493,0.995262075991805
11,200,7.113725,-0.445996829317552,0.995227654181728
11,200,7.11375,-0.446402433988231,0.995192705338877
11,200,7.113775,-0.446812351913244,0.995157218443086
11,200,7.1138,-0.44722665234713,0.995121182182642
11,200,7.113825,-0.447645406031932,0.995084584944964
11,200,7.11385,-0.448068685237334,0.995047414806914
11,200,7.113875,-0.448496563802045,0.995009659524754
11,200,7.1139,-0.448929117176485,0.994971306523716
11,200,7.113925,-0.449366422467028,0.994932342887169
11,200,7.11395,-0.449808558481371,0.994892755345394
11,200,7.113975,-0.450255605775776,0.994852530263895
11,200,7.114,-0.450707646703698,0.99481165363127
11,200,7.114025,-0.451164765465981,0.994770111046618
11,200,7.11405,-0.451627048163058,0.994727887706422
11,200,7.114075,-0.45209458284842,0.994684968390955
11,200,7.1141,-0.452567459584369,0.994641337450116
11,200,7.114125,-0.453045770499409,0.994596978788709
11,200,7.11415,-0.453529609847718,0.994551875851137
11,200,7.114175,-0.454019074070765,0.994506011605458
11,200,7.1142,-0.454514261860788,0.994459368526827
11,200,7.114225,-0.455015274226822,0.99441192858023
11,200,7.11425,-0.45552221456283,0.994363673202526
11,200,7.114275,-0.456035188718365,0.994314583283739
11,200,7.1143,-0.456554305071769,0.994264639147571
11,200,7.114325,-0.457079674605859,0.994213820531113
11,200,7.11435,-0.457611410986452,0.994162106563683
11,200,7.114375,-0.458149630643768,0.994109475744787
11,200,7.1144,-0.458694452856632,0.994055905921128
11,200,7.114425,-0.459245999840159,0.994001374262621
11,200,7.11445,-0.459804396836074,0.993945857237415
11,200,7.114475,-0.460369772206961,0.993889330585779
11,200,7.1145,-0.460942257533675,0.993831769292889
11,200,7.114525,-0.461521987716642,0.993773147560394
11,200,7.11455,-0.462109101080919,0.993713438776734
11,200,7.114575,-0.462703739485108,0.993652615486148
11,200,7.1146,-0.463306048434653,0.993590649356288
11,200,7.114625,-0.46391617719945,0.993527511144359
11,200,7.11465,-0.464534278935945,0.993463170661753
11,200,7.114675,-0.465160510814219,0.993397596737037
11,200,7.1147,-0.465795034149698,0.993330757177276
11,200,7.114725,-0.466438014540391,0.993262618727547
11,200,7.11475,-0.467089622009528,0.993193147028566
11,200,7.114775,-0.467750031153747,0.993122306572357
11,200,7.1148,-0.468419421297705,0.993050060655775
11,200,7.114825,-0.469097976654263,0.992976371331907
11,200,7.11485,-0.469785886491876,0.992901199359077
11,200,7.114875,-0.470483345308572,0.992824504147425
11,200,7.1149,-0.471190553013083,0.99274624370292
11,200,7.114925,-0.471907715113881,0.992666374568585
11,200,7.11495,-0.472635042915612,0.992584851762915
11,200,7.114975,-0.47337275372436,0.992501628715174
11,200,7.115,-0.474121071061302,0.992416657197523
11,200,7.115025,-0.474880224885692,0.992329887253721
11,200,7.11505,-0.475650451827597,0.992241267124207
11,200,7.115075,-0.476431995430344,0.992150743167428
11,200,7.1151,-0.477225106403949,0.992058259777081
11,200,7.115125,-0.478030042889657,0.991963759295103
11,200,7.11515,-0.478847070736135,0.991867181920151
11,200,7.115175,-0.479676463788224,0.991768465611251
11,200,7.1152,-0.480518504188328,0.991667545986428
11,200,7.115225,-0.481373482691927,0.991564356215883
11,200,7.11525,-0.482241698997212,0.991458826909495
11,200,7.115275,-0.483123462090279,0.991350885998198
11,200,7.1153,-0.484019090605692,0.991240458609004
11,200,7.115325,-0.484928913204645,0.991127466933079
11,200,7.11535,-0.485853268970442,0.991011830086599
11,200,7.115375,-0.486792507823088,0.990893463963832
11,200,7.1154,-0.487746990953613,0.990772281081983
11,200,7.115425,-0.488717091279083,0.990648190417316
11,200,7.11545,-0.489703193920206,0.990521097231867
11,200,7.115475,-0.490705696701946,0.990390902890273
11,200,7.1155,-0.491725010679045,0.990257504665951
11,200,7.115525,-0.492761560687905,0.990120795535959
11,200,7.11555,-0.493815785925566,0.989980663963857
11,200,7.115575,-0.494888140558517,0.989836993669611
11,200,7.1156,-0.495979094362409,0.989689663385755
11,200,7.115625,-0.49708913339457,0.98953854659886
11,200,7.11565,-0.498218760701596,0.989383511275239
11,200,7.115675,-0.499368497063617,0.989224419569874
11,200,7.1157,-0.500538881778043,0.989061127517284
11,200,7.115725,-0.501730473484856,0.988893484703143
11,200,7.11575,-0.502943851036353,0.988721333915158
11,200,7.115775,-0.504179614413839,0.988544510771814
11,200,7.1158,-0.505438385693969,0.988362843327363
11,200,7.115825,-0.5067208100689,0.988176151651192
11,200,7.11585,-0.508027556922553,0.987984247379821
11,200,7.115875,-0.509359320967405,0.987786933239372
11,200,7.1159,-0.510716823445776,0.987584002536283
11,200,7.115925,-0.512100813398848,0.98737523861398
11,200,7.11595,-0.513512069009333,0.987160414272691
11,200,7.115975,-0.51495139902222,0.986939291149611
11,200,7.116,-0.51641964424791,0.986711619056455
11,200,7.116025,-0.517917679155732,0.986477135270668
11,200,7.11605,-0.519446413560728,0.986235563777114
11,200,7.116075,-0.521006794413909,0.985986614455654
11,200,7.1161,-0.522599807699972,0.98572998221074
11,200,7.116125,-0.524226480452689,0.985465346037837
11,200,7.11615,-0.52588788289485,0.985192368021676
11,200,7.116175,-0.527585130711805,0.984910692260615
11,200,7.1162,-0.52931938746959,0.984619943710653
11,200,7.116225,-0.531091867187095,0.984319726942413
11,200,7.11625,-0.53290383707394,0.984009624803539
11,200,7.116275,-0.534756620447684,0.983689196978069
11,200,7.1163,-0.536651599841733,0.983357978434049
11,200,7.116325,-0.538590220320943,0.983015477749048
11,200,7.11635,-0.540573993019758,0.982661175302777
11,200,7.116375,-0.542604498920314,0.982294521324718
11,200,7.1164,-0.544683392890534,0.981914933783234
11,200,7.116425,-0.546812408000525,0.981521796101869
11,200,7.11645,-0.548993360143589,0.981114454685883
11,200,7.116475,-0.551228152982543,0.980692216241762
11,200,7.1165,-0.553518783251703,0.980254344869153
11,200,7.116525,-0.555867346441916,0.979800058903527
11,200,7.11655,-0.558276042901424,0.979328527484983
11,200,7.116575,-0.560747184388115,0.978838866825979
11,200,7.1166,-0.563283201112893,0.97833013614751
11,200,7.116625,-0.565886649314434,0.977801333250558
11,200,7.11665,-0.568560219415308,0.977251389684652
11,200,7.116675,-0.571306744807205,0.976679165472404
11,200,7.1167,-0.574129211325741,0.97608344334251
11,200,7.116725,-0.577030767474297,0.975462922419535
11,200,7.11675,-0.580014735467407,0.974816211311565
11,200,7.116775,-0.583084623169896,0.974141820530069
11,200,7.1168,-0.586244137012676,0.973438154168977
11,200,7.116825,-0.589497195983353,0.972703500759006
11,200,7.11685,-0.592847946789218,0.971936023205268
11,200,7.116875,-0.5963007803092,0.971133747702601
11,200,7.1169,-0.599860349462357,0.970294551509949
11,200,7.116925,-0.603531588627738,0.969416149451268
11,200,7.11695,-0.60731973477828,0.968496078990132
11,200,7.116975,-0.611230350497192,0.967531683707786
11,200,7.117,-0.615269349070775,0.966520094990107
11,200,7.117025,-0.619443021874935,0.965458211702183
11,200,7.11705,-0.623758068290048,0.964342677600756
11,200,7.117075,-0.628221628417477,0.963169856197258
11,200,7.1171,-0.632841318891875,0.961935802746676
11,200,7.117125,-0.637625272125841,0.96063623298935
11,200,7.11715,-0.642582179360737,0.959266488220091
11,200,7.117175,-0.6477213379382,0.957821496198298
11,200,7.1172,-0.653052703265683,0.95629572733911
11,200,7.117225,-0.658586945997545,0.954683145545168
11,200,7.11725,-0.664335515022348,0.952977152941289
11,200,7.117275,-0.670310706909677,0.951170527665723
11,200,7.1173,-0.676525742565138,0.949255353738324
11,200,7.117325,-0.682994851912183,0.947222941882058
11,200,7.11735,-0.689733367533148,0.945063739996449
11,200,7.117375,-0.696757828310227,0.942767231780809
11,200,7.1174,-0.704086094216104,0.940321821775409
11,200,7.117425,-0.71173747356231,0.93771470481048
11,200,7.11745,-0.71973286413696,0.93493171754672
11,200,7.117475,-0.728094909832842,0.931957169425475
11,200,7.1175,-0.736848174537849,0.928773649929098
11,200,7.117525,-0.746019335218841,0.925361808579905
11,200,7.11755,-0.755637396329453,0.921700103553927
11,200,7.117575,-0.765733927820674,0.917764514178031
11,200,7.1176,-0.776343329200165,0.913528211884901
11,200,7.117625,-0.787503122196716,0.908961183442334
11,200,7.11765,-0.799254274629338,0.904029799456713
11,200,7.117675,-0.811641558051521,0.898696320282413
11,200,7.1177,-0.824713941519461,0.892918330616766
11,200,7.117725,-0.838525023406165,0.88664809326506
11,200,7.11775,-0.853133502421688,0.879831811941635
11,200,7.117775,-0.868603687730808,0.872408792710542
11,200,7.1178,-0.885006046174793,0.864310493981517
11,200,7.117825,-0.902417781703633,0.855459456302455
11,200,7.11785,-0.920923437989488,0.845768106024567
11,200,7.117875,-0.94061550929404,0.835137432081861
11,200,7.1179,-0.961595036348078,0.823455543774699
11,200,7.117925,-0.983972152723535,0.810596131012217
11,200,7.11795,-1.0078665317359,0.796416869175841
11,200,7.117975,-1.03340766359019,0.780757841127798
11,200,7.118,-1.0607348660375,0.763440092298039
11,200,7.118025,-1.08999689837941,0.744264494997847
11,200,7.11805,-1.1213510080906,0.723011178759593
11,200,7.118075,-1.15496119235434,0.699439887304888
11,200,7.1181,-1.19099540685756,0.67329174895495
11,200,7.118125,-1.2296214083465,0.644293088565792
11,200,7.11815,-1.27100088860762,0.612162046050239
11,200,7.118175,-1.31528156689275,0.576618860726559
11,200,7.1182,-1.36258698512958,0.537400668148829
11,200,7.118225,-1.4130039337908,0.494281443349085
11,200,7.11825,-1.46656776434974,0.447097198436267
11,200,7.118275,-1.52324634008612,0.395775601202848
11,200,7.1183,-1.58292402217239,0.340367797653536
11,200,7.118325,-1.64538778910685,0.281078536189566
11,200,7.11835,-1.71031815340441,0.218289100052602
11,200,7.118375,-1.77728768385667,0.15256671597688
11,200,7.1184,-1.84576924956714,0.0846547757216623
11,200,7.118425,-1.9151473888167,0.0154408663647947
11,200,7.11845,1.15679043819815,0.0540959755569056
11,200,7.118475,1.08757637551505,0.122952347669623
11,200,7.1185,1.01942988948446,0.190171600818257
11,200,7.118525,0.952940514555864,0.254907541373052
11,200,7.11855,0.888610861874385,0.316471320704735
11,200,7.118575,0.82684082254302,0.374356516550142
11,200,7.1186,0.767921870426614,0.428242441236925
11,200,7.118625,0.712040745429283,0.477979709623953
11,200,7.11865,0.659290047691803,0.523564166620524
11,200,7.118675,0.609682905923682,0.565105424661248
11,200,7.1187,0.563169173457811,0.602795108383308
11,200,7.118725,0.519651231300496,0.636878210034772
11,200,7.11875,0.478998178589352,0.667629319222176
11,200,7.118775,0.44105780290756,0.695334222155685
11,200,7.1188,0.405666174866562,0.720276550140399
11,200,7.118825,0.372654998962466,0.74272873536883
11,200,7.11885,0.341857004844248,0.76294639222823
11,200,7.118875,0.313109719581444,0.781165273224221
11,200,7.1189,0.286257958462676,0.797600064487592
11,200,7.118925,0.261155336928711,0.812444430201415
11,200,7.11895,0.237665058451056,0.825871855792233
11,200,7.118975,0.215660183414876,0.838036961424029
11,200,7.119,0.195023538592164,0.849077055221588
11,200,7.119025,0.175647388045623,0.859113770545628
11,200,7.11905,0.157432954693786,0.868254686830875
11,200,7.119075,0.140289857064156,0.87659487275161
11,200,7.1191,0.124135506742056,0.884218317685124
11,200,7.119125,0.10889449779276,0.891199235683672
11,200,7.11915,0.0944980089841485,0.897603237977671
11,200,7.119175,0.080883232002585,0.903488377387807
11,200,7.1192,0.0679928334915599,0.908906072262829
11,200,7.119225,0.0557744549275757,0.913901919781045
11,200,7.11925,0.044180251790547,0.918516409309321
11,200,7.119275,0.0331664717256552,0.922785546561552
11,200,7.1193,0.0226930703192221,0.926741398817519
11,200,7.119325,0.012723362419657,0.930412570731207
11,200,7.11935,0.00322370657737376,0.933824619384146
11,200,7.119375,-0.00583677997294579,0.937000416333618
11,200,7.1194,-0.0144864784010138,0.939960463528945
11,200,7.119425,-0.0227514999645319,0.942723169133665
11,200,7.11945,-0.0306558946923673,0.945305088535195
11,200,7.119475,-0.0382218393156266,0.947721135141205
11,200,7.1195,-0.0454698065141432,0.949984764953003
11,200,7.119525,-0.0524187173819809,0.952108138376576
11,200,7.11955,-0.0590860788285447,0.954102262261085
11,200,7.119575,-0.0654881074735657,0.955977114751225
11,200,7.1196,-0.0716398414432622,0.957741755189413
11,200,7.119625,-0.0775552413153192,0.959404420995147
11,200,7.11965,-0.0832472813523802,0.960972613193615
11,200,7.119675,-0.0887280320258658,0.962453172034299
11,200,7.1197,-0.0940087347298713,0.963852343947602
11,200,7.119725,-0.0990998694951438,0.965175840922111
11,200,7.11975,-0.104011216411962,0.966428893237168
11,200,7.119775,-0.108751911412152,0.967616296366486
11,200,7.1198,-0.113330496972188,0.968742452756763
11,200,7.119825,-0.117754968252609,0.969811409097101
11,200,7.11985,-0.122032815126816,0.970826889613725
11,200,7.119875,-0.126171060503319,0.971792325856038
11,200,7.1199,-0.130176295309326,0.972710883382486
11,200,7.119925,-0.134054710453981,0.973585485700901
11,200,7.11995,-0.137812126067405,0.97441883577644
11,200,7.119975,-0.141454018271655,0.975213435379593
11,200,7.12,-0.144985543716856,0.975971602514278
11,200,7.120025,-0.148411562094218,0.976695487137568
11,200,7.12005,-0.151736656810049,0.977387085356047
11,200,7.120075,-0.154965153992195,0.978048252263049
11,200,7.1201,-0.158101139978241,0.978680713560863
11,200,7.120125,-0.161148477422984,0.979286076095836
11,200,7.12015,-0.164110820148604,0.979865837419515
11,200,7.120175,-0.166991626847052,0.980421394475738
11,200,7.1202,-0.16979417373604,0.980954051502869
11,200,7.120225,-0.17252156625868,0.981465027230057
11,200,7.12025,-0.175176749907695,0.981955461437669
11,200,7.120275,-0.177762520249613,0.982426420944754
11,200,7.1203,-0.180281532215589,0.982878905079285
11,200,7.120325,-0.18273630871884,0.983313850680907
11,200,7.12035,-0.185129248656426,0.983732136681194
11,200,7.120375,-0.187462634341313,0.984134588300583
11,200,7.1204,-0.189738638415471,0.984521980898652
11,200,7.120425,-0.191959330281663,0.984895043509129
11,200,7.12045,-0.194126682093865,0.985254462088822
11,200,7.120475,-0.196242574340672,0.985600882506352
11,200,7.1205,-0.198308801051606,0.985934913293757
11,200,7.120525,-0.20032707465787,0.986257128182447
11,200,7.12055,-0.202299030531527,0.98656806844207
11,200,7.120575,-0.204226231228584,0.986868245039679
11,200,7.1206,-0.206110170458074,0.987158140634657
11,200,7.120625,-0.207952276795611,0.987438211423146
11,200,7.12065,-0.209753917162961,0.987708888845145
11,200,7.120675,-0.21151640008828,0.987970581165404
11,200,7.1207,-0.213240978763654,0.988223674938713
11,200,7.120725,-0.214928853914609,0.988468536369112
11,200,7.12075,-0.216581176493732,0.988705512571493
11,200,7.120775,-0.218199050212285,0.988934932743675
11,200,7.1208,-0.219783533919775,0.989157109255932
11,200,7.120825,-0.221335643842114,0.989372338664523
11,200,7.12085,-0.222856355688962,0.989580902655324
11,200,7.120875,-0.224346606637117,0.989783068922704
11,200,7.1209,-0.225807297200463,0.989979091988958
11,200,7.120925,-0.227239292992224,0.990169213968573
11,200,7.12095,-0.228643426387593,0.99035366528164
11,200,7.120975,-0.23002049809313,0.990532665320195
11,200,7.121,-0.231371278627951,0.990706423070895
11,200,7.121025,-0.232696509723792,0.990875137697372
11,200,7.12105,-0.233996905648233,0.991038999085162
11,200,7.121075,-0.235273154455966,0.991198188351865
11,200,7.1211,-0.236525919172999,0.991352878325129
11,200,7.121125,-0.23775583891709,0.991503233990614
11,200,7.12115,-0.23896352995953,0.991649412912211
11,200,7.121175,-0.240149586730867,0.991791565626344
11,200,7.1212,-0.24131458277413,0.99192983601216
11,200,7.121225,-0.242459071649605,0.992064361639398
11,200,7.12125,-0.243583587791934,0.99219527409519
11,200,7.121275,-0.244688647325099,0.992322699291552
11,200,7.1213,-0.245774748835454,0.99244675775461
11,200,7.121325,-0.246842374106603,0.992567564896903
11,200,7.12135,-0.247891988817367,0.992685231273807
11,200,7.121375,-0.248924043205822,0.9927998628252
11,200,7.1214,-0.249938972700786,0.992911561103277
11,200,7.121425,-0.250937198522794,0.993020423487428
11,200,7.12145,-0.251919128256061,0.993126543386994
11,200,7.121475,-0.252885156393202,0.993230010432674
11,200,7.1215,-0.25383566485421,0.99333091065732
11,200,7.121525,-0.254771023481103,0.993429326666777
11,200,7.12155,-0.255691590509379,0.993525337801353
11,200,7.121575,-0.256597713017989,0.993619020288582
11,200,7.1216,-0.257489727357969,0.993710447387669
11,200,7.121625,-0.258367959562259,0.993799689526297
11,200,7.12165,-0.259232725736611,0.993886814430129
11,200,7.121675,-0.260084332432849,0.993971887245481
11,200,7.1217,-0.260923077005915,0.994054970655615
11,200,7.121725,-0.261749247954458,0.99413612499094
11,200,7.12175,-0.262563125247021,0.994215408333565
11,200,7.121775,-0.263364980633636,0.994292876616484
11,200,7.1218,-0.264155077944045,0.994368583717719
11,200,7.121825,-0.264933673373235,0.99444258154973
11,200,7.12185,-0.265701015754327,0.994514920144291
11,200,7.121875,-0.266457346820253,0.994585647733184
11,200,7.1219,-0.267202901454318,0.99465481082489
11,200,7.121925,-0.267937907930155,0.994722454277502
11,200,7.12195,-0.26866258814198,0.994788621368103
11,200,7.121975,-0.269377157824786,0.994853353858741
11,200,7.122,-0.270081826766082,0.994916692059267
11,200,7.122025,-0.270776799008683,0.994978674887154
11,200,7.12205,-0.27146227304533,0.995039339924464
11,200,7.122075,-0.272138442005609,0.995098723472148
11,200,7.1221,-0.272805493835088,0.995156860601765
11,200,7.122125,-0.273463611467712,0.995213785204832
11,200,7.12215,-0.274112972991105,0.995269530039854
11,200,7.122175,-0.274753751805521,0.99532412677721
11,200,7.1222,-0.275386116776723,0.995377606041995
11,200,7.122225,-0.276010232382572,0.995429997454886
11,200,7.12225,-0.276626258854285,0.995481329671184
11,200,7.122275,-0.277234352312299,0.995531630418113
11,200,7.1223,-0.277834664896722,0.995580926530433
11,200,7.122325,-0.278427344893167,0.995629243984496
11,200,7.12235,-0.279012536853594,0.995676607930785
11,200,7.122375,-0.279590381712768,0.995723042725041
11,200,7.1224,-0.28016101690045,0.995768571958034
11,200,7.122425,-0.280724576449254,0.995813218484032
11,200,7.12245,-0.281281191098953,0.995857004448087
11,200,7.122475,-0.281830988396383,0.995899951312092
11,200,7.1225,-0.282374092792292,0.995942079879786
11,200,7.122525,-0.282910625734372,0.995983410320681
11,200,7.12255,-0.283440705757075,0.996023962192977
