G_CP [um],L_CP [um],Freq [GHz],"mag(S(2,1)) []","ang_rad(S(2,1)) []"
1,200,7.088,0.991846123,-0.522315039
1,200,7.0880425,0.991750521,-0.523074955
1,200,7.088085,0.99165335,-0.523842728
1,200,7.0881275,0.991554576,-0.524618481
1,200,7.08817,0.991454164,-0.525402338
1,200,7.0882125,0.99135208,-0.526194425
1,200,7.088255,0.991248287,-0.526994874
1,200,7.0882975,0.991142748,-0.527803815
1,200,7.08834,0.991035425,-0.528621384
1,200,7.0883825,0.990926279,-0.529447719
1,200,7.088425,0.990815269,-0.530282962
1,200,7.0884675,0.990702354,-0.531127256
1,200,7.08851,0.990587491,-0.531980749
1,200,7.0885525,0.990470638,-0.53284359
1,200,7.088595,0.990351748,-0.533715934
1,200,7.0886375,0.990230777,-0.534597936
1,200,7.08868,0.990107676,-0.535489759
1,200,7.0887225,0.989982397,-0.536391564
1,200,7.088765,0.989854889,-0.537303521
1,200,7.0888075,0.989725102,-0.5382258
1,200,7.08885,0.989592982,-0.539158576
1,200,7.0888925,0.989458474,-0.540102029
1,200,7.088935,0.989321522,-0.541056341
1,200,7.0889775,0.989182069,-0.542021701
1,200,7.08902,0.989040055,-0.542998298
1,200,7.0890625,0.98889542,-0.54398633
1,200,7.089105,0.988748099,-0.544985997
1,200,7.0891475,0.988598028,-0.545997503
1,200,7.08919,0.98844514,-0.54702106
1,200,7.0892325,0.988289367,-0.548056882
1,200,7.089275,0.988130637,-0.549105189
1,200,7.0893175,0.987968877,-0.550166206
1,200,7.08936,0.987804012,-0.551240165
1,200,7.0894025,0.987635965,-0.5523273
1,200,7.089445,0.987464656,-0.553427854
1,200,7.0894875,0.987290001,-0.554542076
1,200,7.08953,0.987111915,-0.555670218
1,200,7.0895725,0.986930312,-0.556812541
1,200,7.089615,0.986745101,-0.557969312
1,200,7.0896575,0.986556187,-0.559140804
1,200,7.0897,0.986363475,-0.560327296
1,200,7.0897425,0.986166865,-0.561529077
1,200,7.089785,0.985966254,-0.56274644
1,200,7.0898275,0.985761536,-0.563979688
1,200,7.08987,0.985552602,-0.56522913
1,200,7.0899125,0.985339338,-0.566495084
1,200,7.089955,0.985121627,-0.567777876
1,200,7.0899975,0.984899349,-0.56907784
1,200,7.09004,0.984672379,-0.57039532
1,200,7.0900825,0.984440586,-0.571730669
1,200,7.090125,0.984203839,-0.573084247
1,200,7.0901675,0.983961998,-0.574456426
1,200,7.09021,0.983714921,-0.575847589
1,200,7.0902525,0.98346246,-0.577258126
1,200,7.090295,0.983204462,-0.578688441
1,200,7.0903375,0.982940768,-0.580138946
1,200,7.09038,0.982671215,-0.581610068
1,200,7.0904225,0.982395633,-0.583102242
1,200,7.090465,0.982113845,-0.584615919
1,200,7.0905075,0.98182567,-0.586151559
1,200,7.09055,0.981530918,-0.587709637
1,200,7.0905925,0.981229394,-0.589290643
1,200,7.090635,0.980920895,-0.590895079
1,200,7.0906775,0.980605211,-0.592523461
1,200,7.09072,0.980282122,-0.594176323
1,200,7.0907625,0.979951403,-0.59585421
1,200,7.090805,0.979612819,-0.597557689
1,200,7.0908475,0.979266125,-0.599287338
1,200,7.09089,0.978911068,-0.601043757
1,200,7.0909325,0.978547385,-0.60282756
1,200,7.090975,0.978174803,-0.604639384
1,200,7.0910175,0.977793038,-0.606479882
1,200,7.09106,0.977401793,-0.608349729
1,200,7.0911025,0.977000764,-0.610249619
1,200,7.091145,0.976589629,-0.612180269
1,200,7.0911875,0.976168058,-0.614142419
1,200,7.09123,0.975735704,-0.616136832
1,200,7.0912725,0.975292209,-0.618164294
1,200,7.091315,0.974837197,-0.620225619
1,200,7.0913575,0.974370279,-0.622321643
1,200,7.0914,0.973891049,-0.624453234
1,200,7.0914425,0.973399084,-0.626621285
1,200,7.091485,0.972893942,-0.62882672
1,200,7.0915275,0.972375163,-0.631070493
1,200,7.09157,0.971842268,-0.633353591
1,200,7.0916125,0.971294757,-0.635677034
1,200,7.091655,0.970732107,-0.638041875
1,200,7.0916975,0.970153772,-0.640449206
1,200,7.09174,0.969559184,-0.642900154
1,200,7.0917825,0.968947748,-0.645395886
1,200,7.091825,0.968318841,-0.647937611
1,200,7.0918675,0.967671815,-0.650526579
1,200,7.09191,0.96700599,-0.653164085
1,200,7.0919525,0.966320655,-0.655851471
1,200,7.091995,0.965615066,-0.658590126
1,200,7.0920375,0.964888446,-0.661381492
1,200,7.09208,0.964139978,-0.66422706
1,200,7.0921225,0.963368809,-0.66712838
1,200,7.092165,0.962574045,-0.670087058
1,200,7.0922075,0.961754747,-0.673104758
1,200,7.09225,0.960909931,-0.67618321
1,200,7.0922925,0.960038566,-0.679324209
1,200,7.092335,0.959139569,-0.682529617
1,200,7.0923775,0.958211803,-0.685801372
1,200,7.09242,0.957254074,-0.689141482
1,200,7.0924625,0.956265127,-0.692552038
1,200,7.092505,0.955243643,-0.696035211
1,200,7.0925475,0.954188236,-0.699593261
1,200,7.09259,0.953097448,-0.703228537
1,200,7.0926325,0.951969743,-0.706943484
1,200,7.092675,0.950803504,-0.710740644
1,200,7.0927175,0.949597031,-0.714622667
1,200,7.09276,0.94834853,-0.718592311
1,200,7.0928025,0.947056109,-0.722652447
1,200,7.092845,0.945717776,-0.726806071
1,200,7.0928875,0.944331427,-0.731056302
1,200,7.09293,0.942894842,-0.735406393
1,200,7.0929725,0.941405678,-0.739859737
1,200,7.093015,0.939861457,-0.744419874
1,200,7.0930575,0.938259562,-0.749090497
1,200,7.0931,0.936597228,-0.753875461
1,200,7.0931425,0.934871527,-0.758778793
1,200,7.093185,0.933079363,-0.763804698
1,200,7.0932275,0.931217456,-0.768957568
1,200,7.09327,0.929282335,-0.774241994
1,200,7.0933125,0.92727032,-0.779662776
1,200,7.093355,0.92517751,-0.785224932
1,200,7.0933975,0.922999771,-0.79093371
1,200,7.09344,0.920732713,-0.7967946
1,200,7.0934825,0.91837168,-0.802813349
1,200,7.093525,0.915911726,-0.808995969
1,200,7.0935675,0.913347599,-0.815348757
1,200,7.09361,0.910673718,-0.821878304
1,200,7.0936525,0.907884148,-0.828591514
1,200,7.093695,0.90497258,-0.835495619
1,200,7.0937375,0.901932302,-0.842598194
1,200,7.09378,0.898756171,-0.849907179
1,200,7.0938225,0.895436586,-0.85743089
1,200,7.093865,0.891965449,-0.865178046
1,200,7.0939075,0.888334139,-0.87315778
1,200,7.09395,0.884533472,-0.881379667
1,200,7.0939925,0.880553661,-0.889853739
1,200,7.094035,0.876384277,-0.898590509
1,200,7.0940775,0.872014205,-0.907600991
1,200,7.09412,0.867431599,-0.916896724
1,200,7.0941625,0.86262383,-0.926489789
1,200,7.094205,0.857577441,-0.936392837
1,200,7.0942475,0.852278089,-0.946619103
1,200,7.09429,0.846710494,-0.957182433
1,200,7.0943325,0.840858379,-0.968097298
1,200,7.094375,0.834704412,-0.979378812
1,200,7.0944175,0.828230151,-0.991042752
1,200,7.09446,0.82141598,-1.003105562
1,200,7.0945025,0.814241054,-1.015584367
1,200,7.094545,0.806683238,-1.028496978
1,200,7.0945875,0.79871906,-1.041861882
1,200,7.09463,0.790323659,-1.05569824
1,200,7.0946725,0.781470743,-1.070025865
1,200,7.094715,0.772132559,-1.084865195
1,200,7.0947575,0.762279877,-1.100237252
1,200,7.0948,0.751881982,-1.116163586
1,200,7.0948425,0.740906697,-1.132666203
1,200,7.094885,0.729320427,-1.149767474
1,200,7.0949275,0.717088233,-1.167490022
1,200,7.09497,0.704173944,-1.185856579
1,200,7.0950125,0.690540318,-1.20488982
1,200,7.095055,0.676149251,-1.224612163
1,200,7.0950975,0.660962048,-1.245045533
1,200,7.09514,0.644939762,-1.266211086
1,200,7.0951825,0.628043617,-1.288128898
1,200,7.095225,0.610235508,-1.310817603
1,200,7.0952675,0.591478599,-1.334293995
1,200,7.09531,0.57173802,-1.358572579
1,200,7.0953525,0.550981664,-1.383665087
1,200,7.095395,0.529181077,-1.40957995
1,200,7.0954375,0.506312452,-1.436321746
1,200,7.09548,0.482357695,-1.463890623
1,200,7.0955225,0.457305554,-1.492281713
1,200,7.095565,0.431152784,-1.52148456
1,200,7.0956075,0.403905301,-1.55148257
1,200,7.09565,0.37557929,-1.582252522
1,200,7.0956925,0.346202214,-1.613764151
1,200,7.095735,0.315813651,-1.64597984
1,200,7.0957775,0.284465909,-1.678854442
1,200,7.09582,0.252224357,-1.71233527
1,200,7.0958625,0.219167404,-1.746362256
1,200,7.095905,0.1853861,-1.780868321
1,200,7.0959475,0.150983308,-1.81577994
1,200,7.09599,0.116072468,-1.851017913
1,200,7.0960325,0.080775942,-1.886498329
1,200,7.096075,0.045223012,-1.922133701
1,200,7.0961175,0.009547587,-1.957834461
1,200,7.09616,0.026114292,1.148084053
1,200,7.0962025,0.061627031,1.112525416
1,200,7.096245,0.096858042,1.077171676
1,200,7.0962875,0.131680163,1.0421084
1,200,7.09633,0.16597385,1.007416956
1,200,7.0963725,0.199629044,0.973173436
1,200,7.096415,0.232546661,0.939447798
1,200,7.0964575,0.264639674,0.906303208
1,200,7.0965,0.295833771,0.873795589
1,200,7.0965425,0.326067607,0.841973367
1,200,7.096585,0.355292697,0.810877415
1,200,7.0966275,0.383472977,0.780541157
1,200,7.09667,0.410584111,0.750990826
1,200,7.0967125,0.436612599,0.722245835
1,200,7.096755,0.461554747,0.694319239
1,200,7.0967975,0.485415551,0.667218261
1,200,7.09684,0.508207554,0.640944859
1,200,7.0968825,0.529949714,0.615496306
1,200,7.096925,0.55066631,0.590865773
1,200,7.0969675,0.570385918,0.567042893
1,200,7.09701,0.589140473,0.544014304
1,200,7.0970525,0.606964418,0.521764146
1,200,7.097095,0.623893958,0.500274534
1,200,7.0971375,0.639966406,0.47952597
1,200,7.09718,0.65521963,0.459497725
1,200,7.0972225,0.669691576,0.440168173
1,200,7.097265,0.68341989,0.421515078
1,200,7.0973075,0.696441596,0.40351585
1,200,7.09735,0.708792851,0.386147759
1,200,7.0973925,0.72050875,0.369388116
1,200,7.097435,0.731623183,0.353214426
1,200,7.0974775,0.742168735,0.337604511
1,200,7.09752,0.752176611,0.322536614
1,200,7.0975625,0.761676609,0.307989476
1,200,7.097605,0.770697095,0.2939424
1,200,7.0976475,0.779265011,0.280375296
1,200,7.09769,0.787405895,0.26726872
1,200,7.0977325,0.795143912,0.254603888
1,200,7.097775,0.802501893,0.242362697
1,200,7.0978175,0.80950138,0.230527724
1,200,7.09786,0.816162682,0.21908223
1,200,7.0979025,0.822504922,0.208010149
1,200,7.097945,0.828546101,0.197296083
1,200,7.0979875,0.834303145,0.186925282
1,200,7.09803,0.839791971,0.176883632
1,200,7.0980725,0.845027534,0.167157634
1,200,7.098115,0.850023886,0.157734388
1,200,7.0981575,0.854794227,0.148601568
1,200,7.0982,0.859350954,0.139747401
1,200,7.0982425,0.863705712,0.131160649
1,200,7.098285,0.867869437,0.122830584
1,200,7.0983275,0.871852402,0.114746968
1,200,7.09837,0.875664259,0.106900031
1,200,7.0984125,0.879314075,0.099280449
1,200,7.098455,0.882810371,0.091879326
1,200,7.0984975,0.886161159,0.084688175
1,200,7.09854,0.889373969,0.077698893
1,200,7.0985825,0.892455885,0.070903751
1,200,7.098625,0.895413572,0.064295368
1,200,7.0986675,0.898253301,0.057866702
1,200,7.09871,0.900980977,0.051611026
1,200,7.0987525,0.903602161,0.045521919
1,200,7.098795,0.906122092,0.039593246
1,200,7.0988375,0.908545706,0.033819147
1,200,7.09888,0.910877661,0.028194021
1,200,7.0989225,0.913122348,0.022712519
1,200,7.098965,0.91528391,0.017369522
1,200,7.0990075,0.91736626,0.012160138
1,200,7.09905,0.919373092,0.007079686
1,200,7.0990925,0.921307897,0.00212369
1,200,7.099135,0.923173975,-0.002712136
1,200,7.0991775,0.924974445,-0.007431895
1,200,7.09922,0.92671226,-0.012039515
1,200,7.0992625,0.928390213,-0.016538759
1,200,7.099305,0.93001095,-0.020933233
1,200,7.0993475,0.931576976,-0.025226391
1,200,7.09939,0.933090666,-0.029421548
1,200,7.0994325,0.934554272,-0.033521879
1,200,7.099475,0.935969928,-0.037530433
1,200,7.0995175,0.93733966,-0.041450134
1,200,7.09956,0.938665393,-0.04528379
1,200,7.0996025,0.939948951,-0.049034095
1,200,7.099645,0.941192072,-0.052703639
1,200,7.0996875,0.942396404,-0.056294908
1,200,7.09973,0.943563515,-0.059810292
1,200,7.0997725,0.944694897,-0.063252089
1,200,7.099815,0.94579197,-0.066622509
1,200,7.0998575,0.946856085,-0.069923675
1,200,7.0999,0.94788853,-0.073157633
1,200,7.0999425,0.948890529,-0.07632635
1,200,7.099985,0.949863253,-0.07943172
1,200,7.1000275,0.950807815,-0.082475568
1,200,7.10007,0.951725278,-0.08545965
1,200,7.1001125,0.952616657,-0.08838566
1,200,7.100155,0.953482919,-0.091255229
1,200,7.1001975,0.954324989,-0.09406993
1,200,7.10024,0.95514375,-0.09683128
1,200,7.1002825,0.955940046,-0.099540741
1,200,7.100325,0.956714683,-0.102199725
1,200,7.1003675,0.957468433,-0.104809595
1,200,7.10041,0.958202034,-0.107371665
1,200,7.1004525,0.958916191,-0.109887205
1,200,7.100495,0.959611581,-0.112357442
1,200,7.1005375,0.960288851,-0.11478356
1,200,7.10058,0.96094862,-0.117166704
1,200,7.1006225,0.961591482,-0.11950798
1,200,7.100665,0.962218008,-0.121808459
1,200,7.1007075,0.962828742,-0.124069175
1,200,7.10075,0.963424209,-0.126291128
1,200,7.1007925,0.964004911,-0.128475287
1,200,7.100835,0.964571329,-0.130622588
1,200,7.1008775,0.965123927,-0.132733939
1,200,7.10092,0.965663149,-0.134810217
1,200,7.1009625,0.966189422,-0.136852273
1,200,7.101005,0.966703156,-0.138860929
1,200,7.1010475,0.967204746,-0.140836985
1,200,7.10109,0.967694569,-0.142781213
1,200,7.1011325,0.968172991,-0.144694362
1,200,7.101175,0.968640363,-0.14657716
1,200,7.1012175,0.969097021,-0.14843031
1,200,7.10126,0.96954329,-0.150254496
1,200,7.1013025,0.969979484,-0.15205038
1,200,7.101345,0.970405902,-0.153818606
1,200,7.1013875,0.970822836,-0.155559797
1,200,7.10143,0.971230563,-0.157274561
1,200,7.1014725,0.971629354,-0.158963483
1,200,7.101515,0.972019469,-0.160627137
1,200,7.1015575,0.972401156,-0.162266076
1,200,7.1016,0.972774658,-0.163880839
1,200,7.1016425,0.973140207,-0.16547195
1,200,7.101685,0.973498029,-0.167039917
1,200,7.1017275,0.973848339,-0.168585236
1,200,7.10177,0.974191347,-0.170108386
1,200,7.1018125,0.974527256,-0.171609835
1,200,7.101855,0.974856261,-0.173090039
1,200,7.1018975,0.975178549,-0.174549438
1,200,7.10194,0.975494304,-0.175988463
1,200,7.1019825,0.975803701,-0.177407533
1,200,7.102025,0.976106911,-0.178807054
1,200,7.1020675,0.976404098,-0.180187424
1,200,7.10211,0.976695421,-0.181549028
1,200,7.1021525,0.976981035,-0.182892243
1,200,7.102195,0.977261089,-0.184217433
1,200,7.1022375,0.977535726,-0.185524956
1,200,7.10228,0.977805086,-0.186815158
1,200,7.1023225,0.978069305,-0.188088379
1,200,7.102365,0.978328513,-0.189344947
1,200,7.1024075,0.978582836,-0.190585184
1,200,7.10245,0.978832398,-0.191809403
1,200,7.1024925,0.979077317,-0.193017909
1,200,7.102535,0.979317709,-0.194211
1,200,7.1025775,0.979553686,-0.195388967
1,200,7.10262,0.979785355,-0.196552092
1,200,7.1026625,0.980012821,-0.197700652
1,200,7.102705,0.980236187,-0.198834916
1,200,7.1027475,0.980455551,-0.199955146
1,200,7.10279,0.980671009,-0.201061601
1,200,7.1028325,0.980882654,-0.20215453
1,200,7.102875,0.981090576,-0.203234177
1,200,7.1029175,0.981294863,-0.204300781
1,200,7.10296,0.981495599,-0.205354576
1,200,7.1030025,0.981692867,-0.206395789
1,200,7.103045,0.981886748,-0.207424641
1,200,7.1030875,0.982077319,-0.208441351
1,200,7.10313,0.982264655,-0.209446131
1,200,7.1031725,0.982448831,-0.210439187
1,200,7.103215,0.982629918,-0.211420722
1,200,7.1032575,0.982807985,-0.212390934
1,200,7.1033,0.982983099,-0.213350017
1,200,7.1033425,0.983155326,-0.21429816
1,200,7.103385,0.983324731,-0.215235547
1,200,7.1034275,0.983491374,-0.21616236
1,200,7.10347,0.983655316,-0.217078775
1,200,7.1035125,0.983816617,-0.217984965
1,200,7.103555,0.983975332,-0.218881099
1,200,7.1035975,0.984131519,-0.219767343
1,200,7.10364,0.98428523,-0.220643859
1,200,7.1036825,0.984436518,-0.221510805
1,200,7.103725,0.984585435,-0.222368336
1,200,7.1037675,0.98473203,-0.223216603
1,200,7.10381,0.984876353,-0.224055756
1,200,7.1038525,0.98501845,-0.224885939
1,200,7.103895,0.985158367,-0.225707296
1,200,7.1039375,0.98529615,-0.226519964
1,200,7.10398,0.985431842,-0.227324082
1,200,7.1040225,0.985565486,-0.228119781
1,200,7.104065,0.985697123,-0.228907194
1,200,7.1041075,0.985826794,-0.229686448
1,200,7.10415,0.985954539,-0.230457669
1,200,7.1041925,0.986080395,-0.231220981
1,200,7.104235,0.986204401,-0.231976502
1,200,7.1042775,0.986326593,-0.232724353
1,200,7.10432,0.986447006,-0.233464648
1,200,7.1043625,0.986565677,-0.234197501
1,200,7.104405,0.986682637,-0.234923023
1,200,7.1044475,0.986797921,-0.235641323
1,200,7.10449,0.986911562,-0.236352508
1,200,7.1045325,0.987023589,-0.237056684
1,200,7.104575,0.987134036,-0.237753952
1,200,7.1046175,0.98724293,-0.238444414
1,200,7.10466,0.987350303,-0.239128168
1,200,7.1047025,0.987456182,-0.239805311
1,200,7.104745,0.987560595,-0.240475939
1,200,7.1047875,0.987663571,-0.241140145
1,200,7.10483,0.987765135,-0.24179802
1,200,7.1048725,0.987865313,-0.242449654
1,200,7.104915,0.987964132,-0.243095135
1,200,7.1049575,0.988061616,-0.243734551
1,200,7.105,0.988157789,-0.244367985
6,200,7.1,0.98989595,-0.515493018
6,200,7.1000175,0.989794894,-0.516234194
6,200,7.100035,0.989692259,-0.516982906
6,200,7.1000525,0.989588012,-0.517739268
6,200,7.10007,0.98948212,-0.518503397
6,200,7.1000875,0.989374548,-0.519275413
6,200,7.100105,0.989265262,-0.520055438
6,200,7.1001225,0.989154225,-0.520843596
6,200,7.10014,0.9890414,-0.521640015
6,200,7.1001575,0.988926749,-0.522444823
6,200,7.100175,0.988810234,-0.523258154
6,200,7.1001925,0.988691814,-0.524080142
6,200,7.10021,0.988571448,-0.524910926
6,200,7.1002275,0.988449094,-0.525750646
6,200,7.100245,0.988324709,-0.526599446
6,200,7.1002625,0.988198248,-0.527457474
6,200,7.10028,0.988069665,-0.528324879
6,200,7.1002975,0.987938915,-0.529201816
6,200,7.100315,0.987805947,-0.53008844
6,200,7.1003325,0.987670714,-0.530984912
6,200,7.10035,0.987533163,-0.531891395
6,200,7.1003675,0.987393242,-0.532808057
6,200,7.100385,0.987250898,-0.53373507
6,200,7.1004025,0.987106075,-0.534672607
6,200,7.10042,0.986958717,-0.535620847
6,200,7.1004375,0.986808763,-0.536579974
6,200,7.100455,0.986656156,-0.537550174
6,200,7.1004725,0.986500831,-0.538531639
6,200,7.10049,0.986342726,-0.539524564
6,200,7.1005075,0.986181775,-0.540529149
6,200,7.100525,0.98601791,-0.541545599
6,200,7.1005425,0.985851062,-0.542574123
6,200,7.10056,0.985681159,-0.543614937
6,200,7.1005775,0.985508127,-0.544668258
6,200,7.100595,0.98533189,-0.545734313
6,200,7.1006125,0.98515237,-0.54681333
6,200,7.10063,0.984969486,-0.547905547
6,200,7.1006475,0.984783155,-0.549011203
6,200,7.100665,0.984593291,-0.550130546
6,200,7.1006825,0.984399807,-0.551263829
6,200,7.1007,0.98420261,-0.552411311
6,200,7.1007175,0.984001606,-0.553573258
6,200,7.100735,0.9837967,-0.554749942
6,200,7.1007525,0.98358779,-0.555941643
6,200,7.10077,0.983374775,-0.557148646
6,200,7.1007875,0.983157546,-0.558371244
6,200,7.100805,0.982935995,-0.559609739
6,200,7.1008225,0.982710008,-0.560864439
6,200,7.10084,0.982479467,-0.56213566
6,200,7.1008575,0.982244253,-0.563423727
6,200,7.100875,0.982004239,-0.564728972
6,200,7.1008925,0.981759296,-0.566051738
6,200,7.10091,0.981509292,-0.567392375
6,200,7.1009275,0.981254088,-0.568751243
6,200,7.100945,0.980993541,-0.570128712
6,200,7.1009625,0.980727505,-0.571525161
6,200,7.10098,0.980455826,-0.572940979
6,200,7.1009975,0.980178347,-0.574376568
6,200,7.101015,0.979894905,-0.575832338
6,200,7.1010325,0.97960533,-0.577308713
6,200,7.10105,0.979309447,-0.578806125
6,200,7.1010675,0.979007077,-0.580325022
6,200,7.101085,0.97869803,-0.581865862
6,200,7.1011025,0.978382113,-0.583429118
6,200,7.10112,0.978059125,-0.585015274
6,200,7.1011375,0.977728857,-0.586624829
6,200,7.101155,0.977391092,-0.588258298
6,200,7.1011725,0.977045607,-0.589916208
6,200,7.10119,0.976692169,-0.591599102
6,200,7.1012075,0.976330537,-0.593307542
6,200,7.101225,0.975960461,-0.595042102
6,200,7.1012425,0.97558168,-0.596803376
6,200,7.10126,0.975193927,-0.598591976
6,200,7.1012775,0.974796919,-0.60040853
6,200,7.101295,0.974390368,-0.602253688
6,200,7.1013125,0.973973971,-0.604128117
6,200,7.10133,0.973547413,-0.606032508
6,200,7.1013475,0.973110369,-0.607967569
6,200,7.101365,0.9726625,-0.609934034
6,200,7.1013825,0.972203453,-0.611932659
6,200,7.1014,0.97173286,-0.613964222
6,200,7.1014175,0.971250341,-0.616029527
6,200,7.101435,0.970755497,-0.618129406
6,200,7.1014525,0.970247914,-0.620264715
6,200,7.10147,0.969727162,-0.622436338
6,200,7.1014875,0.969192791,-0.624645189
6,200,7.101505,0.968644334,-0.626892213
6,200,7.1015225,0.968081303,-0.629178384
6,200,7.10154,0.967503189,-0.631504711
6,200,7.1015575,0.966909461,-0.633872234
6,200,7.101575,0.966299566,-0.636282033
6,200,7.1015925,0.965672926,-0.638735221
6,200,7.10161,0.965028938,-0.64123295
6,200,7.1016275,0.964366972,-0.643776413
6,200,7.101645,0.963686369,-0.646366845
6,200,7.1016625,0.962986442,-0.649005523
6,200,7.10168,0.962266472,-0.651693771
6,200,7.1016975,0.961525706,-0.65443296
6,200,7.101715,0.960763357,-0.657224509
