"G_CP [um]","L_CP [um]","Freq [GHz]","mag(S(2,1)) []","ang_rad(S(2,1)) []"
32,220,7.06,0.999878176003073,-0.350988534909365
32,220,7.0600025,0.999878175989529,-0.350988675192824
32,220,7.060005,0.999878175975995,-0.350988815478395
32,220,7.0600075,0.99987817596247,-0.350988955766077
32,220,7.06001,0.999878175948953,-0.350989096055871
32,220,7.0600125,0.999878175935445,-0.350989236347778
32,220,7.060015,0.999878175921946,-0.350989376641797
32,220,7.0600175,0.999878175908456,-0.35098951693793
32,220,7.06002,0.999878175894975,-0.350989657236176
32,220,7.0600225,0.999878175881503,-0.350989797536536
32,220,7.060025,0.99987817586804,-0.350989937839011
32,220,7.0600275,0.999878175854585,-0.3509900781436
32,220,7.06003,0.99987817584114,-0.350990218450305
32,220,7.0600325,0.999878175827703,-0.350990358759125
32,220,7.060035,0.999878175814276,-0.350990499070062
32,220,7.0600375,0.999878175800857,-0.350990639383115
32,220,7.06004,0.999878175787447,-0.350990779698285
32,220,7.0600425,0.999878175774046,-0.350990920015573
32,220,7.060045,0.999878175760654,-0.350991060334978
32,220,7.0600475,0.999878175747271,-0.350991200656501
32,220,7.06005,0.999878175733896,-0.350991340980144
32,220,7.0600525,0.999878175720531,-0.350991481305905
32,220,7.060055,0.999878175707175,-0.350991621633785
32,220,7.0600575,0.999878175693827,-0.350991761963786
32,220,7.06006,0.999878175680489,-0.350991902295906
32,220,7.0600625,0.999878175667159,-0.350992042630148
32,220,7.060065,0.999878175653838,-0.35099218296651
32,220,7.0600675,0.999878175640526,-0.350992323304995
32,220,7.06007,0.999878175627223,-0.350992463645601
32,220,7.0600725,0.99987817561393,-0.350992603988329
32,220,7.060075,0.999878175600644,-0.35099274433318
32,220,7.0600775,0.999878175587368,-0.350992884680155
32,220,7.06008,0.999878175574101,-0.350993025029253
32,220,7.0600825,0.999878175560843,-0.350993165380475
32,220,7.060085,0.999878175547594,-0.350993305733822
32,220,7.0600875,0.999878175534353,-0.350993446089293
32,220,7.06009,0.999878175521122,-0.35099358644689
32,220,7.0600925,0.999878175507899,-0.350993726806613
32,220,7.060095,0.999878175494686,-0.350993867168462
32,220,7.0600975,0.999878175481481,-0.350994007532437
32,220,7.0601,0.999878175468286,-0.350994147898539
32,220,7.0601025,0.999878175455099,-0.350994288266769
32,220,7.060105,0.999878175441921,-0.350994428637126
32,220,7.0601075,0.999878175428752,-0.350994569009612
32,220,7.06011,0.999878175415592,-0.350994709384227
32,220,7.0601125,0.999878175402442,-0.35099484976097
32,220,7.060115,0.999878175389299,-0.350994990139843
32,220,7.0601175,0.999878175376166,-0.350995130520846
32,220,7.06012,0.999878175363042,-0.35099527090398
32,220,7.0601225,0.999878175349927,-0.350995411289244
32,220,7.060125,0.999878175336821,-0.350995551676639
32,220,7.0601275,0.999878175323724,-0.350995692066166
32,220,7.06013,0.999878175310636,-0.350995832457825
32,220,7.0601325,0.999878175297557,-0.350995972851616
32,220,7.060135,0.999878175284486,-0.35099611324754
32,220,7.0601375,0.999878175271425,-0.350996253645598
32,220,7.06014,0.999878175258373,-0.350996394045789
32,220,7.0601425,0.999878175245329,-0.350996534448115
32,220,7.060145,0.999878175232295,-0.350996674852575
32,220,7.0601475,0.99987817521927,-0.35099681525917
32,220,7.06015,0.999878175206253,-0.3509969556679
32,220,7.0601525,0.999878175193246,-0.350997096078766
32,220,7.060155,0.999878175180248,-0.350997236491769
32,220,7.0601575,0.999878175167258,-0.350997376906907
32,220,7.06016,0.999878175154278,-0.350997517324184
32,220,7.0601625,0.999878175141306,-0.350997657743597
32,220,7.060165,0.999878175128344,-0.350997798165149
32,220,7.0601675,0.99987817511539,-0.350997938588839
32,220,7.06017,0.999878175102446,-0.350998079014668
32,220,7.0601725,0.99987817508951,-0.350998219442636
32,220,7.060175,0.999878175076584,-0.350998359872743
32,220,7.0601775,0.999878175063666,-0.350998500304991
32,220,7.06018,0.999878175050758,-0.350998640739379
32,220,7.0601825,0.999878175037858,-0.350998781175908
32,220,7.060185,0.999878175024968,-0.350998921614578
32,220,7.0601875,0.999878175012086,-0.35099906205539
32,220,7.06019,0.999878174999214,-0.350999202498344
32,220,7.0601925,0.99987817498635,-0.350999342943441
32,220,7.060195,0.999878174973496,-0.350999483390681
32,220,7.0601975,0.999878174960651,-0.350999623840064
32,220,7.0602,0.999878174947814,-0.350999764291591
32,220,7.0602025,0.999878174934987,-0.350999904745262
32,220,7.060205,0.999878174922168,-0.351000045201078
32,220,7.0602075,0.999878174909359,-0.351000185659039
32,220,7.06021,0.999878174896559,-0.351000326119146
32,220,7.0602125,0.999878174883767,-0.351000466581399
32,220,7.060215,0.999878174870985,-0.351000607045798
32,220,7.0602175,0.999878174858212,-0.351000747512344
32,220,7.06022,0.999878174845447,-0.351000887981037
32,220,7.0602225,0.999878174832692,-0.351001028451878
32,220,7.060225,0.999878174819946,-0.351001168924867
32,220,7.0602275,0.999878174807209,-0.351001309400004
32,220,7.06023,0.999878174794481,-0.351001449877291
32,220,7.0602325,0.999878174781762,-0.351001590356727
32,220,7.060235,0.999878174769052,-0.351001730838312
32,220,7.0602375,0.999878174756351,-0.351001871322048
32,220,7.06024,0.999878174743659,-0.351002011807935
32,220,7.0602425,0.999878174730976,-0.351002152295972
32,220,7.060245,0.999878174718302,-0.351002292786161
32,220,7.0602475,0.999878174705637,-0.351002433278502
32,220,7.06025,0.999878174692981,-0.351002573772996
32,220,7.0602525,0.999878174680335,-0.351002714269642
32,220,7.060255,0.999878174667697,-0.351002854768441
32,220,7.0602575,0.999878174655068,-0.351002995269394
32,220,7.06026,0.999878174642449,-0.351003135772501
32,220,7.0602625,0.999878174629838,-0.351003276277763
32,220,7.060265,0.999878174617237,-0.351003416785179
32,220,7.0602675,0.999878174604645,-0.351003557294751
32,220,7.06027,0.999878174592061,-0.351003697806478
32,220,7.0602725,0.999878174579487,-0.351003838320362
32,220,7.060275,0.999878174566922,-0.351003978836403
32,220,7.0602775,0.999878174554366,-0.3510041193546
32,220,7.06028,0.999878174541819,-0.351004259874955
32,220,7.0602825,0.999878174529281,-0.351004400397468
32,220,7.060285,0.999878174516752,-0.351004540922139
32,220,7.0602875,0.999878174504232,-0.351004681448969
32,220,7.06029,0.999878174491722,-0.351004821977958
32,220,7.0602925,0.99987817447922,-0.351004962509107
32,220,7.060295,0.999878174466727,-0.351005103042415
32,220,7.0602975,0.999878174454244,-0.351005243577885
32,220,7.0603,0.999878174441769,-0.351005384115515
32,220,7.0603025,0.999878174429304,-0.351005524655306
32,220,7.060305,0.999878174416848,-0.35100566519726
32,220,7.0603075,0.999878174404401,-0.351005805741375
32,220,7.06031,0.999878174391963,-0.351005946287653
32,220,7.0603125,0.999878174379534,-0.351006086836094
32,220,7.060315,0.999878174367114,-0.351006227386699
32,220,7.0603175,0.999878174354703,-0.351006367939467
32,220,7.06032,0.999878174342301,-0.3510065084944
32,220,7.0603225,0.999878174329909,-0.351006649051497
32,220,7.060325,0.999878174317525,-0.35100678961076
32,220,7.0603275,0.999878174305151,-0.351006930172189
32,220,7.06033,0.999878174292786,-0.351007070735783
32,220,7.0603325,0.99987817428043,-0.351007211301544
32,220,7.060335,0.999878174268083,-0.351007351869472
32,220,7.0603375,0.999878174255745,-0.351007492439567
32,220,7.06034,0.999878174243416,-0.35100763301183
32,220,7.0603425,0.999878174231096,-0.351007773586261
32,220,7.060345,0.999878174218785,-0.351007914162861
32,220,7.0603475,0.999878174206484,-0.35100805474163
32,220,7.06035,0.999878174194192,-0.351008195322568
32,220,7.0603525,0.999878174181908,-0.351008335905676
32,220,7.060355,0.999878174169634,-0.351008476490955
32,220,7.0603575,0.999878174157369,-0.351008617078404
32,220,7.06036,0.999878174145113,-0.351008757668025
32,220,7.0603625,0.999878174132867,-0.351008898259817
32,220,7.060365,0.999878174120629,-0.351009038853781
32,220,7.0603675,0.999878174108401,-0.351009179449918
32,220,7.06037,0.999878174096181,-0.351009320048228
32,220,7.0603725,0.999878174083971,-0.351009460648711
32,220,7.060375,0.99987817407177,-0.351009601251368
32,220,7.0603775,0.999878174059578,-0.351009741856199
32,220,7.06038,0.999878174047396,-0.351009882463205
32,220,7.0603825,0.999878174035222,-0.351010023072386
32,220,7.060385,0.999878174023057,-0.351010163683742
32,220,7.0603875,0.999878174010902,-0.351010304297275
32,220,7.06039,0.999878173998756,-0.351010444912984
32,220,7.0603925,0.999878173986619,-0.351010585530869
32,220,7.060395,0.999878173974491,-0.351010726150932
32,220,7.0603975,0.999878173962372,-0.351010866773173
32,220,7.0604,0.999878173950263,-0.351011007397592
32,220,7.0604025,0.999878173938162,-0.351011148024189
32,220,7.060405,0.999878173926071,-0.351011288652965
32,220,7.0604075,0.999878173913989,-0.351011429283921
32,220,7.06041,0.999878173901916,-0.351011569917057
32,220,7.0604125,0.999878173889852,-0.351011710552373
32,220,7.060415,0.999878173877797,-0.351011851189869
32,220,7.0604175,0.999878173865752,-0.351011991829547
32,220,7.06042,0.999878173853716,-0.351012132471407
32,220,7.0604225,0.999878173841688,-0.351012273115448
32,220,7.060425,0.99987817382967,-0.351012413761672
32,220,7.0604275,0.999878173817662,-0.351012554410079
32,220,7.06043,0.999878173805662,-0.351012695060669
32,220,7.0604325,0.999878173793672,-0.351012835713443
32,220,7.060435,0.999878173781691,-0.351012976368401
32,220,7.0604375,0.999878173769719,-0.351013117025544
32,220,7.06044,0.999878173757756,-0.351013257684871
32,220,7.0604425,0.999878173745802,-0.351013398346385
32,220,7.060445,0.999878173733858,-0.351013539010084
32,220,7.0604475,0.999878173721922,-0.35101367967597
32,220,7.06045,0.999878173709996,-0.351013820344042
32,220,7.0604525,0.999878173698079,-0.351013961014302
32,220,7.060455,0.999878173686171,-0.351014101686749
32,220,7.0604575,0.999878173674273,-0.351014242361385
32,220,7.06046,0.999878173662384,-0.351014383038209
32,220,7.0604625,0.999878173650504,-0.351014523717222
32,220,7.060465,0.999878173638633,-0.351014664398424
32,220,7.0604675,0.999878173626771,-0.351014805081817
32,220,7.06047,0.999878173614918,-0.351014945767399
32,220,7.0604725,0.999878173603075,-0.351015086455173
32,220,7.060475,0.999878173591241,-0.351015227145137
32,220,7.0604775,0.999878173579416,-0.351015367837293
32,220,7.06048,0.9998781735676,-0.351015508531641
32,220,7.0604825,0.999878173555794,-0.351015649228182
32,220,7.060485,0.999878173543996,-0.351015789926916
32,220,7.0604875,0.999878173532209,-0.351015930627842
32,220,7.06049,0.99987817352043,-0.351016071330963
32,220,7.0604925,0.99987817350866,-0.351016212036278
32,220,7.060495,0.9998781734969,-0.351016352743788
32,220,7.0604975,0.999878173485149,-0.351016493453492
32,220,7.0605,0.999878173473407,-0.351016634165393
32,220,7.0605025,0.999878173461674,-0.351016774879489
32,220,7.060505,0.999878173449951,-0.351016915595781
32,220,7.0605075,0.999878173438236,-0.351017056314271
32,220,7.06051,0.999878173426531,-0.351017197034958
32,220,7.0605125,0.999878173414836,-0.351017337757842
32,220,7.060515,0.999878173403149,-0.351017478482925
32,220,7.0605175,0.999878173391472,-0.351017619210206
32,220,7.06052,0.999878173379804,-0.351017759939687
32,220,7.0605225,0.999878173368145,-0.351017900671366
32,220,7.060525,0.999878173356495,-0.351018041405246
32,220,7.0605275,0.999878173344855,-0.351018182141326
32,220,7.06053,0.999878173333224,-0.351018322879607
32,220,7.0605325,0.999878173321602,-0.351018463620089
32,220,7.060535,0.999878173309989,-0.351018604362773
32,220,7.0605375,0.999878173298386,-0.351018745107659
32,220,7.06054,0.999878173286792,-0.351018885854747
32,220,7.0605425,0.999878173275207,-0.351019026604039
32,220,7.060545,0.999878173263632,-0.351019167355534
32,220,7.0605475,0.999878173252065,-0.351019308109233
32,220,7.06055,0.999878173240508,-0.351019448865136
32,220,7.0605525,0.999878173228961,-0.351019589623244
32,220,7.060555,0.999878173217422,-0.351019730383557
32,220,7.0605575,0.999878173205893,-0.351019871146075
32,220,7.06056,0.999878173194373,-0.3510200119108
32,220,7.0605625,0.999878173182862,-0.351020152677731
32,220,7.060565,0.999878173171361,-0.35102029344687
32,220,7.0605675,0.999878173159869,-0.351020434218215
32,220,7.06057,0.999878173148386,-0.351020574991769
32,220,7.0605725,0.999878173136912,-0.35102071576753
32,220,7.060575,0.999878173125448,-0.351020856545501
32,220,7.0605775,0.999878173113993,-0.351020997325681
32,220,7.06058,0.999878173102547,-0.35102113810807
32,220,7.0605825,0.999878173091111,-0.351021278892669
32,220,7.060585,0.999878173079684,-0.351021419679479
32,220,7.0605875,0.999878173068266,-0.3510215604685
32,220,7.06059,0.999878173056857,-0.351021701259732
32,220,7.0605925,0.999878173045458,-0.351021842053176
32,220,7.060595,0.999878173034068,-0.351021982848832
32,220,7.0605975,0.999878173022687,-0.3510221236467
32,220,7.0606,0.999878173011316,-0.351022264446782
32,220,7.0606025,0.999878172999954,-0.351022405249078
32,220,7.060605,0.999878172988601,-0.351022546053587
32,220,7.0606075,0.999878172977257,-0.351022686860311
32,220,7.06061,0.999878172965923,-0.35102282766925
32,220,7.0606125,0.999878172954598,-0.351022968480405
32,220,7.060615,0.999878172943283,-0.351023109293775
32,220,7.0606175,0.999878172931976,-0.351023250109361
32,220,7.06062,0.999878172920679,-0.351023390927164
32,220,7.0606225,0.999878172909392,-0.351023531747184
32,220,7.060625,0.999878172898113,-0.351023672569422
32,220,7.0606275,0.999878172886844,-0.351023813393878
32,220,7.06063,0.999878172875584,-0.351023954220552
32,220,7.0606325,0.999878172864334,-0.351024095049445
32,220,7.060635,0.999878172853093,-0.351024235880557
32,220,7.0606375,0.999878172841862,-0.351024376713889
32,220,7.06064,0.999878172830639,-0.351024517549441
32,220,7.0606425,0.999878172819426,-0.351024658387214
32,220,7.060645,0.999878172808222,-0.351024799227209
32,220,7.0606475,0.999878172797028,-0.351024940069424
32,220,7.06065,0.999878172785843,-0.351025080913862
32,220,7.0606525,0.999878172774667,-0.351025221760522
32,220,7.060655,0.999878172763501,-0.351025362609405
32,220,7.0606575,0.999878172752344,-0.351025503460512
32,220,7.06066,0.999878172741196,-0.351025644313842
32,220,7.0606625,0.999878172730058,-0.351025785169396
32,220,7.060665,0.999878172718928,-0.351025926027175
32,220,7.0606675,0.999878172707809,-0.35102606688718
32,220,7.06067,0.999878172696698,-0.351026207749409
32,220,7.0606725,0.999878172685598,-0.351026348613865
32,220,7.060675,0.999878172674506,-0.351026489480547
32,220,7.0606775,0.999878172663424,-0.351026630349457
32,220,7.06068,0.999878172652351,-0.351026771220593
32,220,7.0606825,0.999878172641287,-0.351026912093958
32,220,7.060685,0.999878172630233,-0.35102705296955
32,220,7.0606875,0.999878172619188,-0.351027193847371
32,220,7.06069,0.999878172608153,-0.351027334727422
32,220,7.0606925,0.999878172597126,-0.351027475609702
32,220,7.060695,0.99987817258611,-0.351027616494212
32,220,7.0606975,0.999878172575103,-0.351027757380952
32,220,7.0607,0.999878172564104,-0.351027898269923
32,220,7.0607025,0.999878172553116,-0.351028039161126
32,220,7.060705,0.999878172542137,-0.351028180054561
32,220,7.0607075,0.999878172531167,-0.351028320950228
32,220,7.06071,0.999878172520206,-0.351028461848127
32,220,7.0607125,0.999878172509255,-0.35102860274826
32,220,7.060715,0.999878172498313,-0.351028743650626
32,220,7.0607175,0.999878172487381,-0.351028884555226
32,220,7.06072,0.999878172476458,-0.351029025462061
32,220,7.0607225,0.999878172465545,-0.351029166371131
32,220,7.060725,0.99987817245464,-0.351029307282436
32,220,7.0607275,0.999878172443746,-0.351029448195977
32,220,7.06073,0.99987817243286,-0.351029589111755
32,220,7.0607325,0.999878172421984,-0.351029730029769
32,220,7.060735,0.999878172411118,-0.35102987095002
32,220,7.0607375,0.99987817240026,-0.351030011872509
32,220,7.06074,0.999878172389413,-0.351030152797236
32,220,7.0607425,0.999878172378574,-0.351030293724202
32,220,7.060745,0.999878172367745,-0.351030434653406
32,220,7.0607475,0.999878172356926,-0.35103057558485
32,220,7.06075,0.999878172346115,-0.351030716518534
32,220,7.0607525,0.999878172335314,-0.351030857454458
32,220,7.060755,0.999878172324523,-0.351030998392623
32,220,7.0607575,0.999878172313741,-0.351031139333029
32,220,7.06076,0.999878172302969,-0.351031280275677
32,220,7.0607625,0.999878172292205,-0.351031421220567
32,220,7.060765,0.999878172281452,-0.3510315621677
32,220,7.0607675,0.999878172270707,-0.351031703117075
32,220,7.06077,0.999878172259973,-0.351031844068695
32,220,7.0607725,0.999878172249247,-0.351031985022558
32,220,7.060775,0.999878172238531,-0.351032125978665
32,220,7.0607775,0.999878172227824,-0.351032266937017
32,220,7.06078,0.999878172217128,-0.351032407897615
32,220,7.0607825,0.99987817220644,-0.351032548860458
32,220,7.060785,0.999878172195761,-0.351032689825548
32,220,7.0607875,0.999878172185092,-0.351032830792884
32,220,7.06079,0.999878172174433,-0.351032971762467
32,220,7.0607925,0.999878172163783,-0.351033112734298
32,220,7.060795,0.999878172153143,-0.351033253708377
32,220,7.0607975,0.999878172142511,-0.351033394684704
32,220,7.0608,0.99987817213189,-0.35103353566328
32,220,7.0608025,0.999878172121277,-0.351033676644106
32,220,7.060805,0.999878172110675,-0.351033817627181
32,220,7.0608075,0.999878172100081,-0.351033958612506
32,220,7.06081,0.999878172089497,-0.351034099600083
32,220,7.0608125,0.999878172078923,-0.35103424058991
32,220,7.060815,0.999878172068358,-0.351034381581989
32,220,7.0608175,0.999878172057803,-0.35103452257632
32,220,7.06082,0.999878172047257,-0.351034663572904
32,220,7.0608225,0.99987817203672,-0.35103480457174
32,220,7.060825,0.999878172026193,-0.35103494557283
32,220,7.0608275,0.999878172015675,-0.351035086576174
32,220,7.06083,0.999878172005167,-0.351035227581772
32,220,7.0608325,0.999878171994668,-0.351035368589625
32,220,7.060835,0.999878171984179,-0.351035509599733
32,220,7.0608375,0.999878171973699,-0.351035650612097
32,220,7.06084,0.999878171963229,-0.351035791626717
32,220,7.0608425,0.999878171952768,-0.351035932643594
32,220,7.060845,0.999878171942317,-0.351036073662728
32,220,7.0608475,0.999878171931875,-0.351036214684119
32,220,7.06085,0.999878171921443,-0.351036355707768
32,220,7.0608525,0.99987817191102,-0.351036496733676
32,220,7.060855,0.999878171900606,-0.351036637761842
32,220,7.0608575,0.999878171890202,-0.351036778792268
32,220,7.06086,0.999878171879808,-0.351036919824953
32,220,7.0608625,0.999878171869423,-0.351037060859899
32,220,7.060865,0.999878171859047,-0.351037201897105
32,220,7.0608675,0.999878171848681,-0.351037342936573
32,220,7.06087,0.999878171838325,-0.351037483978302
32,220,7.0608725,0.999878171827978,-0.351037625022293
32,220,7.060875,0.999878171817641,-0.351037766068547
32,220,7.0608775,0.999878171807313,-0.351037907117064
32,220,7.06088,0.999878171796994,-0.351038048167844
32,220,7.0608825,0.999878171786685,-0.351038189220888
32,220,7.060885,0.999878171776386,-0.351038330276196
32,220,7.0608875,0.999878171766096,-0.351038471333769
32,220,7.06089,0.999878171755815,-0.351038612393608
32,220,7.0608925,0.999878171745544,-0.351038753455712
32,220,7.060895,0.999878171735283,-0.351038894520082
32,220,7.0608975,0.999878171725031,-0.351039035586719
32,220,7.0609,0.999878171714789,-0.351039176655623
32,220,7.0609025,0.999878171704556,-0.351039317726794
32,220,7.060905,0.999878171694333,-0.351039458800234
32,220,7.0609075,0.999878171684119,-0.351039599875941
32,220,7.06091,0.999878171673915,-0.351039740953918
32,220,7.0609125,0.99987817166372,-0.351039882034164
32,220,7.060915,0.999878171653535,-0.35104002311668
32,220,7.0609175,0.999878171643359,-0.351040164201466
32,220,7.06092,0.999878171633193,-0.351040305288523
32,220,7.0609225,0.999878171623036,-0.351040446377851
32,220,7.060925,0.999878171612889,-0.351040587469451
32,220,7.0609275,0.999878171602752,-0.351040728563323
32,220,7.06093,0.999878171592623,-0.351040869659467
32,220,7.0609325,0.999878171582505,-0.351041010757884
32,220,7.060935,0.999878171572396,-0.351041151858575
