"G_CP [um]","L_CP [um]","Freq [GHz]","mag(S(2,1)) []","ang_rad(S(2,1)) []"
27,120,7.133,0.999946477033522,-0.318595800955516
27,120,7.13300020834201,0.99994647825112,-0.318595985974256
27,120,7.13300041668403,0.999946479468893,-0.31859617102264
27,120,7.13300062502604,0.99994648068684,-0.318596356100658
27,120,7.13300083336806,0.999946481904962,-0.318596541208335
27,120,7.13300104171007,0.99994648312326,-0.318596726345661
27,120,7.13300125005209,0.999946484341732,-0.31859691151266
27,120,7.1330014583941,0.999946485560379,-0.318597096709324
27,120,7.13300166673611,0.999946486779201,-0.318597281935667
27,120,7.13300187507813,0.999946487998198,-0.318597467191707
27,120,7.13300208342014,0.99994648921737,-0.318597652477434
27,120,7.13300229176216,0.999946490436718,-0.318597837792872
27,120,7.13300250010417,0.99994649165624,-0.318598023138013
27,120,7.13300270844618,0.999946492875938,-0.31859820851287
27,120,7.1330029167882,0.99994649409581,-0.318598393917462
27,120,7.13300312513021,0.999946495315859,-0.318598579351777
27,120,7.13300333347223,0.999946496536082,-0.318598764815842
27,120,7.13300354181424,0.999946497756482,-0.318598950309646
27,120,7.13300375015626,0.999946498977056,-0.318599135833214
27,120,7.13300395849827,0.999946500197806,-0.318599321386536
27,120,7.13300416684029,0.999946501418731,-0.318599506969638
27,120,7.1330043751823,0.999946502639831,-0.318599692582508
27,120,7.13300458352431,0.999946503861108,-0.318599878225165
27,120,7.13300479186633,0.999946505082559,-0.318600063897623
27,120,7.13300500020834,0.999946506304187,-0.318600249599873
27,120,7.13300520855036,0.99994650752599,-0.31860043533194
27,120,7.13300541689237,0.999946508747968,-0.318600621093815
27,120,7.13300562523438,0.999946509970123,-0.318600806885512
27,120,7.1330058335764,0.999946511192453,-0.318600992707049
27,120,7.13300604191841,0.999946512414959,-0.318601178558416
27,120,7.13300625026043,0.999946513637641,-0.318601364439638
27,120,7.13300645860244,0.999946514860498,-0.318601550350704
27,120,7.13300666694446,0.999946516083532,-0.31860173629164
27,120,7.13300687528647,0.999946517306742,-0.318601922262436
27,120,7.13300708362848,0.999946518530127,-0.318602108263108
27,120,7.1330072919705,0.999946519753688,-0.318602294293674
27,120,7.13300750031251,0.999946520977426,-0.318602480354121
27,120,7.13300770865453,0.99994652220134,-0.318602666444477
27,120,7.13300791699654,0.999946523425429,-0.318602852564731
27,120,7.13300812533856,0.999946524649695,-0.318603038714907
27,120,7.13300833368057,0.999946525874137,-0.318603224894996
27,120,7.13300854202258,0.999946527098755,-0.318603411105015
27,120,7.1330087503646,0.99994652832355,-0.31860359734498
27,120,7.13300895870661,0.999946529548521,-0.318603783614881
27,120,7.13300916704863,0.999946530773668,-0.318603969914743
27,120,7.13300937539064,0.999946531998991,-0.318604156244554
27,120,7.13300958373266,0.999946533224491,-0.318604342604343
27,120,7.13300979207467,0.999946534450168,-0.318604528994097
27,120,7.13301000041668,0.99994653567602,-0.318604715413834
27,120,7.1330102087587,0.99994653690205,-0.31860490186357
27,120,7.13301041710071,0.999946538128256,-0.318605088343296
27,120,7.13301062544273,0.999946539354638,-0.318605274853036
27,120,7.13301083378474,0.999946540581198,-0.31860546139278
27,120,7.13301104212676,0.999946541807934,-0.318605647962552
27,120,7.13301125046877,0.999946543034846,-0.318605834562346
27,120,7.13301145881078,0.999946544261936,-0.318606021192175
27,120,7.1330116671528,0.999946545489202,-0.318606207852056
27,120,7.13301187549481,0.999946546716645,-0.318606394541979
27,120,7.13301208383683,0.999946547944264,-0.31860658126197
27,120,7.13301229217884,0.999946549172061,-0.318606768012019
27,120,7.13301250052085,0.999946550400034,-0.318606954792141
27,120,7.13301270886287,0.999946551628185,-0.318607141602355
27,120,7.13301291720488,0.999946552856513,-0.31860732844265
27,120,7.1330131255469,0.999946554085017,-0.31860751531305
27,120,7.13301333388891,0.999946555313699,-0.318607702213546
27,120,7.13301354223093,0.999946556542558,-0.318607889144163
27,120,7.13301375057294,0.999946557771594,-0.318608076104891
27,120,7.13301395891496,0.999946559000807,-0.318608263095756
27,120,7.13301416725697,0.999946560230197,-0.318608450116747
27,120,7.13301437559898,0.999946561459765,-0.318608637167881
27,120,7.133014583941,0.99994656268951,-0.318608824249175
27,120,7.13301479228301,0.999946563919432,-0.318609011360618
27,120,7.13301500062503,0.999946565149531,-0.318609198502236
27,120,7.13301520896704,0.999946566379809,-0.318609385674019
27,120,7.13301541730905,0.999946567610263,-0.318609572875983
27,120,7.13301562565107,0.999946568840895,-0.318609760108145
27,120,7.13301583399308,0.999946570071704,-0.318609947370495
27,120,7.1330160423351,0.999946571302692,-0.318610134663059
27,120,7.13301625067711,0.999946572533856,-0.318610321985825
27,120,7.13301645901913,0.999946573765198,-0.31861050933882
27,120,7.13301666736114,0.999946574996718,-0.318610696722034
27,120,7.13301687570315,0.999946576228416,-0.318610884135483
27,120,7.13301708404517,0.999946577460291,-0.318611071579184
27,120,7.13301729238718,0.999946578692344,-0.318611259053127
27,120,7.1330175007292,0.999946579924575,-0.318611446557336
27,120,7.13301770907121,0.999946581156984,-0.318611634091802
27,120,7.13301791741323,0.999946582389571,-0.318611821656553
27,120,7.13301812575524,0.999946583622336,-0.318612009251573
27,120,7.13301833409725,0.999946584855278,-0.318612196876884
27,120,7.13301854243927,0.999946586088399,-0.318612384532501
27,120,7.13301875078128,0.999946587321697,-0.318612572218413
27,120,7.1330189591233,0.999946588555174,-0.318612759934646
27,120,7.13301916746531,0.999946589788829,-0.318612947681191
27,120,7.13301937580733,0.999946591022662,-0.318613135458073
27,120,7.13301958414934,0.999946592256673,-0.31861332326528
27,120,7.13301979249135,0.999946593490863,-0.318613511102831
27,120,7.13302000083337,0.999946594725231,-0.318613698970742
27,120,7.13302020917538,0.999946595959777,-0.318613886869003
27,120,7.1330204175174,0.999946597194501,-0.318614074797639
27,120,7.13302062585941,0.999946598429404,-0.318614262756638
27,120,7.13302083420142,0.999946599664485,-0.318614450746022
27,120,7.13302104254344,0.999946600899744,-0.318614638765803
27,120,7.13302125088545,0.999946602135182,-0.318614826815972
27,120,7.13302145922747,0.999946603370799,-0.318615014896557
27,120,7.13302166756948,0.999946604606594,-0.318615203007545
27,120,7.1330218759115,0.999946605842568,-0.318615391148963
27,120,7.13302208425351,0.99994660707872,-0.3186155793208
27,120,7.13302229259553,0.999946608315052,-0.318615767523081
27,120,7.13302250093754,0.999946609551561,-0.318615955755799
27,120,7.13302270927955,0.99994661078825,-0.318616144018968
27,120,7.13302291762157,0.999946612025117,-0.318616332312606
27,120,7.13302312596358,0.999946613262163,-0.3186165206367
27,120,7.1330233343056,0.999946614499388,-0.31861670899128
27,120,7.13302354264761,0.999946615736792,-0.318616897376333
27,120,7.13302375098962,0.999946616974375,-0.318617085791878
27,120,7.13302395933164,0.999946618212137,-0.318617274237928
27,120,7.13302416767365,0.999946619450077,-0.318617462714477
27,120,7.13302437601567,0.999946620688198,-0.318617651221549
27,120,7.13302458435768,0.999946621926497,-0.318617839759134
27,120,7.1330247926997,0.999946623164975,-0.318618028327256
27,120,7.13302500104171,0.999946624403632,-0.318618216925907
27,120,7.13302520938372,0.999946625642469,-0.318618405555104
27,120,7.13302541772574,0.999946626881484,-0.318618594214862
27,120,7.13302562606775,0.999946628120679,-0.318618782905171
27,120,7.13302583440977,0.999946629360053,-0.318618971626059
27,120,7.13302604275178,0.999946630599607,-0.318619160377514
27,120,7.1330262510938,0.99994663183934,-0.318619349159561
27,120,7.13302645943581,0.999946633079253,-0.318619537972193
27,120,7.13302666777782,0.999946634319344,-0.318619726815424
27,120,7.13302687611984,0.999946635559616,-0.318619915689272
27,120,7.13302708446185,0.999946636800067,-0.318620104593726
27,120,7.13302729280387,0.999946638040697,-0.318620293528812
27,120,7.13302750114588,0.999946639281508,-0.318620482494521
27,120,7.1330277094879,0.999946640522497,-0.318620671490877
27,120,7.13302791782991,0.999946641763667,-0.318620860517872
27,120,7.13302812617192,0.999946643005016,-0.318621049575521
27,120,7.13302833451394,0.999946644246545,-0.318621238663841
27,120,7.13302854285595,0.999946645488254,-0.318621427782823
27,120,7.13302875119797,0.999946646730143,-0.318621616932492
27,120,7.13302895953998,0.999946647972211,-0.318621806112837
27,120,7.133029167882,0.999946649214459,-0.318621995323886
27,120,7.13302937622401,0.999946650456888,-0.318622184565628
27,120,7.13302958456602,0.999946651699496,-0.318622373838079
27,120,7.13302979290804,0.999946652942285,-0.318622563141256
27,120,7.13303000125005,0.999946654185253,-0.31862275247515
27,120,7.13303020959207,0.999946655428402,-0.318622941839786
27,120,7.13303041793408,0.99994665667173,-0.318623131235154
27,120,7.13303062627609,0.999946657915239,-0.318623320661272
27,120,7.13303083461811,0.999946659158928,-0.318623510118155
27,120,7.13303104296012,0.999946660402798,-0.318623699605793
27,120,7.13303125130214,0.999946661646848,-0.318623889124212
27,120,7.13303145964415,0.999946662891077,-0.318624078673403
27,120,7.13303166798617,0.999946664135488,-0.318624268253392
27,120,7.13303187632818,0.999946665380079,-0.318624457864167
27,120,7.13303208467019,0.99994666662485,-0.318624647505747
27,120,7.13303229301221,0.999946667869802,-0.318624837178149
27,120,7.13303250135422,0.999946669114934,-0.318625026881361
27,120,7.13303270969624,0.999946670360247,-0.318625216615409
27,120,7.13303291803825,0.99994667160574,-0.318625406380284
27,120,7.13303312638027,0.999946672851414,-0.318625596176012
27,120,7.13303333472228,0.999946674097269,-0.318625786002583
27,120,7.1330335430643,0.999946675343304,-0.318625975860021
27,120,7.13303375140631,0.99994667658952,-0.318626165748317
27,120,7.13303395974832,0.999946677835917,-0.318626355667489
27,120,7.13303416809034,0.999946679082495,-0.318626545617554
27,120,7.13303437643235,0.999946680329254,-0.318626735598498
27,120,7.13303458477437,0.999946681576193,-0.318626925610353
27,120,7.13303479311638,0.999946682823314,-0.318627115653105
27,120,7.13303500145839,0.999946684070615,-0.318627305726772
27,120,7.13303520980041,0.999946685318098,-0.318627495831371
27,120,7.13303541814242,0.999946686565761,-0.31862768596689
27,120,7.13303562648444,0.999946687813606,-0.318627876133358
27,120,7.13303583482645,0.999946689061631,-0.318628066330764
27,120,7.13303604316847,0.999946690309838,-0.318628256559133
27,120,7.13303625151048,0.999946691558226,-0.318628446818455
27,120,7.13303645985249,0.999946692806796,-0.318628637108748
27,120,7.13303666819451,0.999946694055546,-0.318628827430028
27,120,7.13303687653652,0.999946695304478,-0.318629017782284
27,120,7.13303708487854,0.999946696553591,-0.318629208165545
27,120,7.13303729322055,0.999946697802886,-0.318629398579798
27,120,7.13303750156256,0.999946699052362,-0.318629589025062
27,120,7.13303770990458,0.99994670030202,-0.318629779501353
27,120,7.13303791824659,0.999946701551859,-0.31862997000866
27,120,7.13303812658861,0.99994670280188,-0.318630160547011
27,120,7.13303833493062,0.999946704052082,-0.318630351116396
27,120,7.13303854327264,0.999946705302466,-0.318630541716839
27,120,7.13303875161465,0.999946706553031,-0.31863073234833
27,120,7.13303895995667,0.999946707803779,-0.318630923010897
27,120,7.13303916829868,0.999946709054708,-0.318631113704529
27,120,7.13303937664069,0.999946710305818,-0.318631304429242
27,120,7.13303958498271,0.999946711557111,-0.318631495185055
27,120,7.13303979332472,0.999946712808585,-0.318631685971956
27,120,7.13304000166674,0.999946714060242,-0.318631876789972
27,120,7.13304021000875,0.99994671531208,-0.318632067639093
27,120,7.13304041835076,0.9999467165641,-0.318632258519336
27,120,7.13304062669278,0.999946717816302,-0.318632449430718
27,120,7.13304083503479,0.999946719068686,-0.318632640373229
27,120,7.13304104337681,0.999946720321253,-0.318632831346894
27,120,7.13304125171882,0.999946721574002,-0.318633022351705
27,120,7.13304146006084,0.999946722826932,-0.318633213387686
27,120,7.13304166840285,0.999946724080045,-0.318633404454829
27,120,7.13304187674486,0.99994672533334,-0.318633595553149
27,120,7.13304208508688,0.999946726586817,-0.318633786682664
27,120,7.13304229342889,0.999946727840477,-0.318633977843363
27,120,7.13304250177091,0.999946729094319,-0.318634169035275
27,120,7.13304271011292,0.999946730348344,-0.318634360258386
27,120,7.13304291845494,0.99994673160255,-0.318634551512726
27,120,7.13304312679695,0.999946732856939,-0.318634742798282
27,120,7.13304333513896,0.999946734111511,-0.318634934115072
27,120,7.13304354348098,0.999946735366266,-0.318635125463114
27,120,7.13304375182299,0.999946736621203,-0.318635316842397
27,120,7.13304396016501,0.999946737876322,-0.318635508252947
27,120,7.13304416850702,0.999946739131624,-0.318635699694753
27,120,7.13304437684904,0.999946740387109,-0.318635891167844
27,120,7.13304458519105,0.999946741642777,-0.318636082672208
27,120,7.13304479353306,0.999946742898627,-0.318636274207863
27,120,7.13304500187508,0.999946744154661,-0.318636465774825
27,120,7.13304521021709,0.999946745410877,-0.318636657373083
27,120,7.13304541855911,0.999946746667276,-0.318636849002667
27,120,7.13304562690112,0.999946747923858,-0.318637040663564
27,120,7.13304583524314,0.999946749180623,-0.318637232355799
27,120,7.13304604358515,0.999946750437571,-0.318637424079366
27,120,7.13304625192716,0.999946751694701,-0.31863761583428
27,120,7.13304646026918,0.999946752952015,-0.318637807620558
27,120,7.13304666861119,0.999946754209512,-0.318637999438188
27,120,7.13304687695321,0.999946755467193,-0.3186381912872
27,120,7.13304708529522,0.999946756725056,-0.318638383167582
27,120,7.13304729363723,0.999946757983103,-0.318638575079351
27,120,7.13304750197925,0.999946759241333,-0.318638767022524
27,120,7.13304771032126,0.999946760499747,-0.318638958997092
27,120,7.13304791866328,0.999946761758343,-0.318639151003082
27,120,7.13304812700529,0.999946763017123,-0.318639343040481
27,120,7.13304833534731,0.999946764276087,-0.318639535109317
27,120,7.13304854368932,0.999946765535234,-0.31863972720958
27,120,7.13304875203133,0.999946766794564,-0.318639919341287
27,120,7.13304896037335,0.999946768054078,-0.318640111504456
27,120,7.13304916871536,0.999946769313776,-0.318640303699075
27,120,7.13304937705738,0.999946770573657,-0.318640495925172
27,120,7.13304958539939,0.999946771833722,-0.318640688182737
27,120,7.13304979374141,0.999946773093971,-0.318640880471795
27,120,7.13305000208342,0.999946774354403,-0.318641072792338
27,120,7.13305021042543,0.999946775615019,-0.318641265144379
27,120,7.13305041876745,0.999946776875819,-0.31864145752794
27,120,7.13305062710946,0.999946778136803,-0.318641649943009
27,120,7.13305083545148,0.999946779397971,-0.318641842389612
27,120,7.13305104379349,0.999946780659322,-0.318642034867739
27,120,7.13305125213551,0.999946781920858,-0.318642227377417
27,120,7.13305146047752,0.999946783182578,-0.318642419918636
27,120,7.13305166881953,0.999946784444481,-0.318642612491412
27,120,7.13305187716155,0.999946785706569,-0.318642805095764
27,120,7.13305208550356,0.999946786968841,-0.318642997731681
27,120,7.13305229384558,0.999946788231297,-0.31864319039919
27,120,7.13305250218759,0.999946789493937,-0.318643383098279
27,120,7.13305271052961,0.999946790756762,-0.318643575828976
27,120,7.13305291887162,0.999946792019771,-0.318643768591271
27,120,7.13305312721363,0.999946793282964,-0.31864396138518
27,120,7.13305333555565,0.999946794546341,-0.318644154210723
27,120,7.13305354389766,0.999946795809903,-0.318644347067887
27,120,7.13305375223968,0.999946797073649,-0.3186445399567
27,120,7.13305396058169,0.99994679833758,-0.318644732877151
27,120,7.1330541689237,0.999946799601696,-0.318644925829258
27,120,7.13305437726572,0.999946800865996,-0.318645118813039
27,120,7.13305458560773,0.99994680213048,-0.318645311828483
27,120,7.13305479394975,0.999946803395149,-0.318645504875615
27,120,7.13305500229176,0.999946804660003,-0.318645697954428
27,120,7.13305521063378,0.999946805925041,-0.318645891064947
27,120,7.13305541897579,0.999946807190265,-0.318646084207161
27,120,7.13305562731781,0.999946808455673,-0.318646277381097
27,120,7.13305583565982,0.999946809721266,-0.318646470586746
27,120,7.13305604400183,0.999946810987043,-0.318646663824124
27,120,7.13305625234385,0.999946812253006,-0.318646857093249
27,120,7.13305646068586,0.999946813519154,-0.318647050394111
27,120,7.13305666902788,0.999946814785486,-0.318647243726737
27,120,7.13305687736989,0.999946816052004,-0.318647437091116
27,120,7.1330570857119,0.999946817318707,-0.318647630487266
27,120,7.13305729405392,0.999946818585595,-0.318647823915203
27,120,7.13305750239593,0.999946819852667,-0.318648017374919
27,120,7.13305771073795,0.999946821119925,-0.318648210866439
27,120,7.13305791907996,0.999946822387369,-0.318648404389754
27,120,7.13305812742198,0.999946823654997,-0.318648597944889
27,120,7.13305833576399,0.999946824922811,-0.318648791531835
27,120,7.133058544106,0.99994682619081,-0.31864898515061
27,120,7.13305875244802,0.999946827458995,-0.318649178801231
27,120,7.13305896079003,0.999946828727365,-0.318649372483685
27,120,7.13305916913205,0.999946829995921,-0.318649566198004
27,120,7.13305937747406,0.999946831264662,-0.318649759944175
27,120,7.13305958581608,0.999946832533588,-0.318649953722224
27,120,7.13305979415809,0.9999468338027,-0.318650147532141
27,120,7.1330600025001,0.999946835071998,-0.318650341373945
27,120,7.13306021084212,0.999946836341482,-0.318650535247653
27,120,7.13306041918413,0.99994683761115,-0.318650729153252
27,120,7.13306062752615,0.999946838881005,-0.318650923090773
27,120,7.13306083586816,0.999946840151046,-0.318651117060204
27,120,7.13306104421018,0.999946841421272,-0.318651311061572
27,120,7.13306125255219,0.999946842691685,-0.318651505094866
27,120,7.1330614608942,0.999946843962282,-0.318651699160102
27,120,7.13306166923622,0.999946845233066,-0.318651893257301
27,120,7.13306187757823,0.999946846504037,-0.318652087386452
27,120,7.13306208592025,0.999946847775193,-0.318652281547581
27,120,7.13306229426226,0.999946849046535,-0.318652475740677
27,120,7.13306250260427,0.999946850318063,-0.318652669965759
27,120,7.13306271094629,0.999946851589777,-0.318652864222844
27,120,7.1330629192883,0.999946852861678,-0.318653058511922
27,120,7.13306312763032,0.999946854133764,-0.318653252833018
27,120,7.13306333597233,0.999946855406037,-0.318653447186125
27,120,7.13306354431435,0.999946856678496,-0.318653641571268
27,120,7.13306375265636,0.999946857951142,-0.318653835988437
27,120,7.13306396099838,0.999946859223974,-0.318654030437658
27,120,7.13306416934039,0.999946860496992,-0.318654224918922
27,120,7.1330643776824,0.999946861770197,-0.318654419432246
27,120,7.13306458602442,0.999946863043588,-0.318654613977647
27,120,7.13306479436643,0.999946864317166,-0.318654808555117
27,120,7.13306500270845,0.99994686559093,-0.318655003164681
27,120,7.13306521105046,0.999946866864881,-0.31865519780633
27,120,7.13306541939247,0.999946868139018,-0.31865539248008
27,120,7.13306562773449,0.999946869413343,-0.31865558718595
27,120,7.1330658360765,0.999946870687853,-0.318655781923929
27,120,7.13306604441852,0.999946871962551,-0.318655976694044
27,120,7.13306625276053,0.999946873237436,-0.318656171496285
27,120,7.13306646110255,0.999946874512507,-0.318656366330679
27,120,7.13306666944456,0.999946875787765,-0.318656561197215
27,120,7.13306687778657,0.99994687706321,-0.318656756095911
27,120,7.13306708612859,0.999946878338842,-0.318656951026786
27,120,7.1330672944706,0.999946879614661,-0.318657145989829
27,120,7.13306750281262,0.999946880890667,-0.318657340985065
27,120,7.13306771115463,0.99994688216686,-0.318657536012487
27,120,7.13306791949665,0.99994688344324,-0.318657731072119
27,120,7.13306812783866,0.999946884719808,-0.318657926163954
