G_CP [um],L_CP [um],Freq [GHz],"mag(S(2,1)) []","ang_rad(S(2,1)) []"
22,200,7.077,0.999709848,-0.373961244
22,200,7.077000123,0.999709802,-0.373963668
22,200,7.077000246,0.999709756,-0.373966094
22,200,7.077000369,0.99970971,-0.373968519
22,200,7.077000492,0.999709664,-0.373970945
22,200,7.077000615,0.999709618,-0.373973371
22,200,7.077000738,0.999709572,-0.373975798
22,200,7.077000861,0.999709527,-0.373978225
22,200,7.077000984,0.999709481,-0.373980653
22,200,7.077001107,0.999709435,-0.373983081
22,200,7.07700123,0.999709389,-0.373985509
22,200,7.077001352,0.999709343,-0.373987938
22,200,7.077001475,0.999709297,-0.373990367
22,200,7.077001598,0.999709251,-0.373992796
22,200,7.077001721,0.999709205,-0.373995226
22,200,7.077001844,0.999709159,-0.373997657
22,200,7.077001967,0.999709113,-0.374000087
22,200,7.07700209,0.999709067,-0.374002519
22,200,7.077002213,0.999709021,-0.37400495
22,200,7.077002336,0.999708975,-0.374007382
22,200,7.077002459,0.999708929,-0.374009815
22,200,7.077002582,0.999708883,-0.374012247
22,200,7.077002705,0.999708836,-0.374014681
22,200,7.077002828,0.99970879,-0.374017114
22,200,7.077002951,0.999708744,-0.374019548
22,200,7.077003074,0.999708698,-0.374021983
22,200,7.077003197,0.999708652,-0.374024417
22,200,7.07700332,0.999708606,-0.374026853
22,200,7.077003443,0.999708559,-0.374029288
22,200,7.077003566,0.999708513,-0.374031724
22,200,7.077003689,0.999708467,-0.374034161
22,200,7.077003811,0.999708421,-0.374036598
22,200,7.077003934,0.999708375,-0.374039035
22,200,7.077004057,0.999708328,-0.374041473
22,200,7.07700418,0.999708282,-0.374043911
22,200,7.077004303,0.999708236,-0.374046349
22,200,7.077004426,0.99970819,-0.374048788
22,200,7.077004549,0.999708143,-0.374051228
22,200,7.077004672,0.999708097,-0.374053667
22,200,7.077004795,0.999708051,-0.374056107
22,200,7.077004918,0.999708004,-0.374058548
22,200,7.077005041,0.999707958,-0.374060989
22,200,7.077005164,0.999707911,-0.37406343
22,200,7.077005287,0.999707865,-0.374065872
22,200,7.07700541,0.999707819,-0.374068314
22,200,7.077005533,0.999707772,-0.374070757
22,200,7.077005656,0.999707726,-0.3740732
22,200,7.077005779,0.999707679,-0.374075643
22,200,7.077005902,0.999707633,-0.374078087
22,200,7.077006025,0.999707586,-0.374080531
22,200,7.077006148,0.99970754,-0.374082976
22,200,7.07700627,0.999707493,-0.374085421
22,200,7.077006393,0.999707447,-0.374087867
22,200,7.077006516,0.9997074,-0.374090312
22,200,7.077006639,0.999707354,-0.374092759
22,200,7.077006762,0.999707307,-0.374095205
22,200,7.077006885,0.999707261,-0.374097653
22,200,7.077007008,0.999707214,-0.3741001
22,200,7.077007131,0.999707168,-0.374102548
22,200,7.077007254,0.999707121,-0.374104996
22,200,7.077007377,0.999707074,-0.374107445
22,200,7.0770075,0.999707028,-0.374109894
22,200,7.077007623,0.999706981,-0.374112344
22,200,7.077007746,0.999706934,-0.374114794
22,200,7.077007869,0.999706888,-0.374117244
22,200,7.077007992,0.999706841,-0.374119695
22,200,7.077008115,0.999706794,-0.374122146
22,200,7.077008238,0.999706748,-0.374124598
22,200,7.077008361,0.999706701,-0.37412705
22,200,7.077008484,0.999706654,-0.374129502
22,200,7.077008607,0.999706607,-0.374131955
22,200,7.07700873,0.999706561,-0.374134409
22,200,7.077008852,0.999706514,-0.374136862
22,200,7.077008975,0.999706467,-0.374139316
22,200,7.077009098,0.99970642,-0.374141771
22,200,7.077009221,0.999706373,-0.374144226
22,200,7.077009344,0.999706326,-0.374146681
22,200,7.077009467,0.99970628,-0.374149137
22,200,7.07700959,0.999706233,-0.374151593
22,200,7.077009713,0.999706186,-0.37415405
22,200,7.077009836,0.999706139,-0.374156507
22,200,7.077009959,0.999706092,-0.374158964
22,200,7.077010082,0.999706045,-0.374161422
22,200,7.077010205,0.999705998,-0.37416388
22,200,7.077010328,0.999705951,-0.374166339
22,200,7.077010451,0.999705904,-0.374168798
22,200,7.077010574,0.999705857,-0.374171257
22,200,7.077010697,0.99970581,-0.374173717
22,200,7.07701082,0.999705763,-0.374176178
22,200,7.077010943,0.999705716,-0.374178638
22,200,7.077011066,0.999705669,-0.374181099
22,200,7.077011189,0.999705622,-0.374183561
22,200,7.077011311,0.999705575,-0.374186023
22,200,7.077011434,0.999705528,-0.374188485
22,200,7.077011557,0.999705481,-0.374190948
22,200,7.07701168,0.999705434,-0.374193411
22,200,7.077011803,0.999705387,-0.374195875
22,200,7.077011926,0.999705339,-0.374198339
22,200,7.077012049,0.999705292,-0.374200803
22,200,7.077012172,0.999705245,-0.374203268
22,200,7.077012295,0.999705198,-0.374205733
22,200,7.077012418,0.999705151,-0.374208199
22,200,7.077012541,0.999705104,-0.374210665
22,200,7.077012664,0.999705056,-0.374213132
22,200,7.077012787,0.999705009,-0.374215599
22,200,7.07701291,0.999704962,-0.374218066
22,200,7.077013033,0.999704915,-0.374220534
22,200,7.077013156,0.999704867,-0.374223002
22,200,7.077013279,0.99970482,-0.374225471
22,200,7.077013402,0.999704773,-0.37422794
22,200,7.077013525,0.999704725,-0.374230409
22,200,7.077013648,0.999704678,-0.374232879
22,200,7.07701377,0.999704631,-0.374235349
22,200,7.077013893,0.999704583,-0.37423782
22,200,7.077014016,0.999704536,-0.374240291
22,200,7.077014139,0.999704489,-0.374242763
22,200,7.077014262,0.999704441,-0.374245234
22,200,7.077014385,0.999704394,-0.374247707
22,200,7.077014508,0.999704346,-0.37425018
22,200,7.077014631,0.999704299,-0.374252653
22,200,7.077014754,0.999704251,-0.374255126
22,200,7.077014877,0.999704204,-0.3742576
22,200,7.077015,0.999704156,-0.374260075
22,200,7.077015123,0.999704109,-0.37426255
22,200,7.077015246,0.999704061,-0.374265025
22,200,7.077015369,0.999704014,-0.374267501
22,200,7.077015492,0.999703966,-0.374269977
22,200,7.077015615,0.999703919,-0.374272453
22,200,7.077015738,0.999703871,-0.37427493
22,200,7.077015861,0.999703824,-0.374277408
22,200,7.077015984,0.999703776,-0.374279885
22,200,7.077016107,0.999703728,-0.374282364
22,200,7.07701623,0.999703681,-0.374284842
22,200,7.077016352,0.999703633,-0.374287321
22,200,7.077016475,0.999703585,-0.374289801
22,200,7.077016598,0.999703538,-0.374292281
22,200,7.077016721,0.99970349,-0.374294761
22,200,7.077016844,0.999703442,-0.374297242
22,200,7.077016967,0.999703395,-0.374299723
22,200,7.07701709,0.999703347,-0.374302204
22,200,7.077017213,0.999703299,-0.374304686
22,200,7.077017336,0.999703251,-0.374307169
22,200,7.077017459,0.999703204,-0.374309651
22,200,7.077017582,0.999703156,-0.374312135
22,200,7.077017705,0.999703108,-0.374314618
22,200,7.077017828,0.99970306,-0.374317102
22,200,7.077017951,0.999703012,-0.374319587
22,200,7.077018074,0.999702965,-0.374322072
22,200,7.077018197,0.999702917,-0.374324557
22,200,7.07701832,0.999702869,-0.374327043
22,200,7.077018443,0.999702821,-0.374329529
22,200,7.077018566,0.999702773,-0.374332016
22,200,7.077018689,0.999702725,-0.374334503
22,200,7.077018811,0.999702677,-0.37433699
22,200,7.077018934,0.999702629,-0.374339478
22,200,7.077019057,0.999702581,-0.374341966
22,200,7.07701918,0.999702533,-0.374344455
22,200,7.077019303,0.999702485,-0.374346944
22,200,7.077019426,0.999702437,-0.374349434
22,200,7.077019549,0.999702389,-0.374351924
22,200,7.077019672,0.999702341,-0.374354414
22,200,7.077019795,0.999702293,-0.374356905
22,200,7.077019918,0.999702245,-0.374359396
22,200,7.077020041,0.999702197,-0.374361888
22,200,7.077020164,0.999702149,-0.37436438
22,200,7.077020287,0.999702101,-0.374366872
22,200,7.07702041,0.999702053,-0.374369365
22,200,7.077020533,0.999702005,-0.374371858
22,200,7.077020656,0.999701956,-0.374374352
22,200,7.077020779,0.999701908,-0.374376846
22,200,7.077020902,0.99970186,-0.374379341
22,200,7.077021025,0.999701812,-0.374381836
22,200,7.077021148,0.999701764,-0.374384331
22,200,7.07702127,0.999701715,-0.374386827
22,200,7.077021393,0.999701667,-0.374389324
22,200,7.077021516,0.999701619,-0.37439182
22,200,7.077021639,0.999701571,-0.374394317
22,200,7.077021762,0.999701522,-0.374396815
22,200,7.077021885,0.999701474,-0.374399313
22,200,7.077022008,0.999701426,-0.374401811
22,200,7.077022131,0.999701378,-0.37440431
22,200,7.077022254,0.999701329,-0.374406809
22,200,7.077022377,0.999701281,-0.374409309
22,200,7.0770225,0.999701233,-0.374411809
22,200,7.077022623,0.999701184,-0.37441431
22,200,7.077022746,0.999701136,-0.374416811
22,200,7.077022869,0.999701087,-0.374419312
22,200,7.077022992,0.999701039,-0.374421814
22,200,7.077023115,0.99970099,-0.374424316
22,200,7.077023238,0.999700942,-0.374426819
22,200,7.077023361,0.999700894,-0.374429322
22,200,7.077023484,0.999700845,-0.374431825
22,200,7.077023607,0.999700797,-0.374434329
22,200,7.07702373,0.999700748,-0.374436834
22,200,7.077023852,0.9997007,-0.374439338
22,200,7.077023975,0.999700651,-0.374441844
22,200,7.077024098,0.999700602,-0.374444349
22,200,7.077024221,0.999700554,-0.374446855
22,200,7.077024344,0.999700505,-0.374449362
22,200,7.077024467,0.999700457,-0.374451869
22,200,7.07702459,0.999700408,-0.374454376
22,200,7.077024713,0.99970036,-0.374456884
22,200,7.077024836,0.999700311,-0.374459392
22,200,7.077024959,0.999700262,-0.374461901
22,200,7.077025082,0.999700214,-0.37446441
22,200,7.077025205,0.999700165,-0.374466919
22,200,7.077025328,0.999700116,-0.374469429
22,200,7.077025451,0.999700067,-0.374471939
22,200,7.077025574,0.999700019,-0.37447445
22,200,7.077025697,0.99969997,-0.374476961
22,200,7.07702582,0.999699921,-0.374479473
22,200,7.077025943,0.999699873,-0.374481985
22,200,7.077026066,0.999699824,-0.374484497
22,200,7.077026189,0.999699775,-0.37448701
22,200,7.077026311,0.999699726,-0.374489523
22,200,7.077026434,0.999699677,-0.374492037
22,200,7.077026557,0.999699628,-0.374494551
22,200,7.07702668,0.99969958,-0.374497066
22,200,7.077026803,0.999699531,-0.374499581
22,200,7.077026926,0.999699482,-0.374502096
22,200,7.077027049,0.999699433,-0.374504612
22,200,7.077027172,0.999699384,-0.374507128
22,200,7.077027295,0.999699335,-0.374509645
22,200,7.077027418,0.999699286,-0.374512162
22,200,7.077027541,0.999699237,-0.37451468
22,200,7.077027664,0.999699188,-0.374517198
22,200,7.077027787,0.999699139,-0.374519716
22,200,7.07702791,0.99969909,-0.374522235
22,200,7.077028033,0.999699041,-0.374524755
22,200,7.077028156,0.999698992,-0.374527274
22,200,7.077028279,0.999698943,-0.374529794
22,200,7.077028402,0.999698894,-0.374532315
22,200,7.077028525,0.999698845,-0.374534836
22,200,7.077028648,0.999698796,-0.374537357
22,200,7.07702877,0.999698747,-0.374539879
22,200,7.077028893,0.999698698,-0.374542402
22,200,7.077029016,0.999698649,-0.374544924
22,200,7.077029139,0.999698599,-0.374547448
22,200,7.077029262,0.99969855,-0.374549971
22,200,7.077029385,0.999698501,-0.374552495
22,200,7.077029508,0.999698452,-0.37455502
22,200,7.077029631,0.999698403,-0.374557545
22,200,7.077029754,0.999698353,-0.37456007
22,200,7.077029877,0.999698304,-0.374562596
22,200,7.07703,0.999698255,-0.374565122
22,200,7.077030123,0.999698206,-0.374567648
22,200,7.077030246,0.999698156,-0.374570175
22,200,7.077030369,0.999698107,-0.374572703
22,200,7.077030492,0.999698058,-0.374575231
22,200,7.077030615,0.999698008,-0.374577759
22,200,7.077030738,0.999697959,-0.374580288
22,200,7.077030861,0.99969791,-0.374582817
22,200,7.077030984,0.99969786,-0.374585347
22,200,7.077031107,0.999697811,-0.374587877
22,200,7.07703123,0.999697762,-0.374590407
22,200,7.077031352,0.999697712,-0.374592938
22,200,7.077031475,0.999697663,-0.374595469
22,200,7.077031598,0.999697613,-0.374598001
22,200,7.077031721,0.999697564,-0.374600533
22,200,7.077031844,0.999697514,-0.374603066
22,200,7.077031967,0.999697465,-0.374605599
22,200,7.07703209,0.999697415,-0.374608133
22,200,7.077032213,0.999697366,-0.374610667
22,200,7.077032336,0.999697316,-0.374613201
22,200,7.077032459,0.999697267,-0.374615736
22,200,7.077032582,0.999697217,-0.374618271
22,200,7.077032705,0.999697168,-0.374620807
22,200,7.077032828,0.999697118,-0.374623343
22,200,7.077032951,0.999697068,-0.374625879
22,200,7.077033074,0.999697019,-0.374628416
22,200,7.077033197,0.999696969,-0.374630954
22,200,7.07703332,0.999696919,-0.374633492
22,200,7.077033443,0.99969687,-0.37463603
22,200,7.077033566,0.99969682,-0.374638569
22,200,7.077033689,0.99969677,-0.374641108
22,200,7.077033811,0.999696721,-0.374643647
22,200,7.077033934,0.999696671,-0.374646187
22,200,7.077034057,0.999696621,-0.374648728
22,200,7.07703418,0.999696571,-0.374651269
22,200,7.077034303,0.999696522,-0.37465381
22,200,7.077034426,0.999696472,-0.374656352
22,200,7.077034549,0.999696422,-0.374658894
22,200,7.077034672,0.999696372,-0.374661437
22,200,7.077034795,0.999696322,-0.37466398
22,200,7.077034918,0.999696273,-0.374666523
22,200,7.077035041,0.999696223,-0.374669067
22,200,7.077035164,0.999696173,-0.374671611
22,200,7.077035287,0.999696123,-0.374674156
22,200,7.07703541,0.999696073,-0.374676701
22,200,7.077035533,0.999696023,-0.374679247
22,200,7.077035656,0.999695973,-0.374681793
22,200,7.077035779,0.999695923,-0.37468434
22,200,7.077035902,0.999695873,-0.374686887
22,200,7.077036025,0.999695823,-0.374689434
22,200,7.077036148,0.999695773,-0.374691982
22,200,7.07703627,0.999695723,-0.37469453
22,200,7.077036393,0.999695673,-0.374697079
22,200,7.077036516,0.999695623,-0.374699628
22,200,7.077036639,0.999695573,-0.374702178
22,200,7.077036762,0.999695523,-0.374704728
22,200,7.077036885,0.999695473,-0.374707278
22,200,7.077037008,0.999695423,-0.374709829
22,200,7.077037131,0.999695373,-0.374712381
22,200,7.077037254,0.999695323,-0.374714932
22,200,7.077037377,0.999695273,-0.374717485
22,200,7.0770375,0.999695222,-0.374720037
22,200,7.077037623,0.999695172,-0.37472259
22,200,7.077037746,0.999695122,-0.374725144
22,200,7.077037869,0.999695072,-0.374727698
22,200,7.077037992,0.999695022,-0.374730252
22,200,7.077038115,0.999694971,-0.374732807
22,200,7.077038238,0.999694921,-0.374735362
22,200,7.077038361,0.999694871,-0.374737918
22,200,7.077038484,0.999694821,-0.374740474
22,200,7.077038607,0.99969477,-0.374743031
22,200,7.07703873,0.99969472,-0.374745588
22,200,7.077038852,0.99969467,-0.374748145
22,200,7.077038975,0.999694619,-0.374750703
22,200,7.077039098,0.999694569,-0.374753262
22,200,7.077039221,0.999694518,-0.37475582
22,200,7.077039344,0.999694468,-0.37475838
22,200,7.077039467,0.999694418,-0.374760939
22,200,7.07703959,0.999694367,-0.374763499
22,200,7.077039713,0.999694317,-0.37476606
22,200,7.077039836,0.999694266,-0.374768621
22,200,7.077039959,0.999694216,-0.374771182
22,200,7.077040082,0.999694165,-0.374773744
22,200,7.077040205,0.999694115,-0.374776306
22,200,7.077040328,0.999694064,-0.374778869
22,200,7.077040451,0.999694014,-0.374781432
22,200,7.077040574,0.999693963,-0.374783996
22,200,7.077040697,0.999693913,-0.37478656
22,200,7.07704082,0.999693862,-0.374789125
22,200,7.077040943,0.999693812,-0.37479169
22,200,7.077041066,0.999693761,-0.374794255
22,200,7.077041189,0.99969371,-0.374796821
22,200,7.077041311,0.99969366,-0.374799387
22,200,7.077041434,0.999693609,-0.374801954
22,200,7.077041557,0.999693558,-0.374804521
22,200,7.07704168,0.999693508,-0.374807089
22,200,7.077041803,0.999693457,-0.374809657
22,200,7.077041926,0.999693406,-0.374812225
22,200,7.077042049,0.999693356,-0.374814794
22,200,7.077042172,0.999693305,-0.374817363
22,200,7.077042295,0.999693254,-0.374819933
22,200,7.077042418,0.999693203,-0.374822503
22,200,7.077042541,0.999693153,-0.374825074
22,200,7.077042664,0.999693102,-0.374827645
22,200,7.077042787,0.999693051,-0.374830217
22,200,7.07704291,0.999693,-0.374832789
22,200,7.077043033,0.999692949,-0.374835361
22,200,7.077043156,0.999692898,-0.374837934
22,200,7.077043279,0.999692848,-0.374840508
22,200,7.077043402,0.999692797,-0.374843081
22,200,7.077043525,0.999692746,-0.374845656
22,200,7.077043648,0.999692695,-0.37484823
22,200,7.07704377,0.999692644,-0.374850805
22,200,7.077043893,0.999692593,-0.374853381
22,200,7.077044016,0.999692542,-0.374855957
22,200,7.077044139,0.999692491,-0.374858533
22,200,7.077044262,0.99969244,-0.37486111
22,200,7.077044385,0.999692389,-0.374863688
22,200,7.077044508,0.999692338,-0.374866265
22,200,7.077044631,0.999692287,-0.374868844
22,200,7.077044754,0.999692236,-0.374871422
22,200,7.077044877,0.999692185,-0.374874001
22,200,7.077045,0.999692134,-0.374876581
22,200,7.077045123,0.999692082,-0.374879161
22,200,7.077045246,0.999692031,-0.374881741
22,200,7.077045369,0.99969198,-0.374884322
22,200,7.077045492,0.999691929,-0.374886904
22,200,7.077045615,0.999691878,-0.374889485
22,200,7.077045738,0.999691827,-0.374892068
22,200,7.077045861,0.999691775,-0.37489465
22,200,7.077045984,0.999691724,-0.374897233
22,200,7.077046107,0.999691673,-0.374899817
22,200,7.07704623,0.999691622,-0.374902401
22,200,7.077046352,0.999691571,-0.374904985
22,200,7.077046475,0.999691519,-0.37490757
22,200,7.077046598,0.999691468,-0.374910156
22,200,7.077046721,0.999691417,-0.374912741
22,200,7.077046844,0.999691365,-0.374915328
22,200,7.077046967,0.999691314,-0.374917914
22,200,7.07704709,0.999691263,-0.374920501
22,200,7.077047213,0.999691211,-0.374923089
22,200,7.077047336,0.99969116,-0.374925677
22,200,7.077047459,0.999691108,-0.374928265
22,200,7.077047582,0.999691057,-0.374930854
22,200,7.077047705,0.999691006,-0.374933444
22,200,7.077047828,0.999690954,-0.374936034
22,200,7.077047951,0.999690903,-0.374938624
22,200,7.077048074,0.999690851,-0.374941214
22,200,7.077048197,0.9996908,-0.374943806
22,200,7.07704832,0.999690748,-0.374946397
22,200,7.077048443,0.999690697,-0.374948989
22,200,7.077048566,0.999690645,-0.374951582
22,200,7.077048689,0.999690594,-0.374954175
22,200,7.077048811,0.999690542,-0.374956768
22,200,7.077048934,0.99969049,-0.374959362
22,200,7.077049057,0.999690439,-0.374961956
22,200,7.07704918,0.999690387,-0.374964551
22,200,7.077049303,0.999690335,-0.374967146
22,200,7.077049426,0.999690284,-0.374969742
22,200,7.077049549,0.999690232,-0.374972338
22,200,7.077049672,0.99969018,-0.374974934
22,200,7.077049795,0.999690129,-0.374977531
22,200,7.077049918,0.999690077,-0.374980129
22,200,7.077050041,0.999690025,-0.374982727
22,200,7.077050164,0.999689974,-0.374985325
22,200,7.077050287,0.999689922,-0.374987924
22,200,7.07705041,0.99968987,-0.374990523
22,200,7.077050533,0.999689818,-0.374993123
22,200,7.077050656,0.999689766,-0.374995723
22,200,7.077050779,0.999689715,-0.374998323
22,200,7.077050902,0.999689663,-0.375000924
22,200,7.077051025,0.999689611,-0.375003526
22,200,7.077051148,0.999689559,-0.375006128
22,200,7.07705127,0.999689507,-0.37500873
22,200,7.077051393,0.999689455,-0.375011333
22,200,7.077051516,0.999689403,-0.375013936
22,200,7.077051639,0.999689351,-0.37501654
22,200,7.077051762,0.999689299,-0.375019144
22,200,7.077051885,0.999689247,-0.375021749
22,200,7.077052008,0.999689195,-0.375024354
22,200,7.077052131,0.999689143,-0.375026959
22,200,7.077052254,0.999689091,-0.375029565
22,200,7.077052377,0.999689039,-0.375032172
22,200,7.0770525,0.999688987,-0.375034779
22,200,7.077052623,0.999688935,-0.375037386
22,200,7.077052746,0.999688883,-0.375039994
22,200,7.077052869,0.999688831,-0.375042602
22,200,7.077052992,0.999688779,-0.375045211
22,200,7.077053115,0.999688727,-0.37504782
22,200,7.077053238,0.999688675,-0.375050429
22,200,7.077053361,0.999688623,-0.375053039
22,200,7.077053484,0.99968857,-0.37505565
22,200,7.077053607,0.999688518,-0.375058261
22,200,7.07705373,0.999688466,-0.375060872
22,200,7.077053852,0.999688414,-0.375063484
22,200,7.077053975,0.999688362,-0.375066097
22,200,7.077054098,0.999688309,-0.375068709
22,200,7.077054221,0.999688257,-0.375071322
22,200,7.077054344,0.999688205,-0.375073936
22,200,7.077054467,0.999688152,-0.37507655
22,200,7.07705459,0.9996881,-0.375079165
22,200,7.077054713,0.999688048,-0.37508178
22,200,7.077054836,0.999687995,-0.375084395
22,200,7.077054959,0.999687943,-0.375087011
22,200,7.077055082,0.999687891,-0.375089628
22,200,7.077055205,0.999687838,-0.375092245
22,200,7.077055328,0.999687786,-0.375094862
22,200,7.077055451,0.999687733,-0.37509748
22,200,7.077055574,0.999687681,-0.375100098
22,200,7.077055697,0.999687629,-0.375102716
22,200,7.07705582,0.999687576,-0.375105336
22,200,7.077055943,0.999687524,-0.375107955
