G_CP [um],L_CP [um],Freq [GHz],"mag(S(2,1)) []","ang_rad(S(2,1)) []"
72,200,7.16,0.999889037,-0.348958577
72,200,7.16000082,0.999889036,-0.348958687
72,200,7.160001639,0.999889035,-0.348958797
72,200,7.160002459,0.999889034,-0.348958908
72,200,7.160003279,0.999889033,-0.348959018
72,200,7.160004098,0.999889033,-0.348959128
72,200,7.160004918,0.999889032,-0.348959238
72,200,7.160005738,0.999889031,-0.348959349
72,200,7.160006557,0.99988903,-0.348959459
72,200,7.160007377,0.999889029,-0.348959569
72,200,7.160008197,0.999889029,-0.34895968
72,200,7.160009016,0.999889028,-0.34895979
72,200,7.160009836,0.999889027,-0.3489599
72,200,7.160010656,0.999889026,-0.348960011
72,200,7.160011475,0.999889025,-0.348960121
72,200,7.160012295,0.999889025,-0.348960232
72,200,7.160013115,0.999889024,-0.348960342
72,200,7.160013934,0.999889023,-0.348960453
72,200,7.160014754,0.999889022,-0.348960563
72,200,7.160015574,0.999889021,-0.348960674
72,200,7.160016393,0.99988902,-0.348960784
72,200,7.160017213,0.99988902,-0.348960895
72,200,7.160018033,0.999889019,-0.348961005
72,200,7.160018852,0.999889018,-0.348961116
72,200,7.160019672,0.999889017,-0.348961226
72,200,7.160020492,0.999889016,-0.348961337
72,200,7.160021311,0.999889016,-0.348961447
72,200,7.160022131,0.999889015,-0.348961558
72,200,7.160022951,0.999889014,-0.348961669
72,200,7.16002377,0.999889013,-0.348961779
72,200,7.16002459,0.999889012,-0.34896189
72,200,7.16002541,0.999889012,-0.348962
72,200,7.16002623,0.999889011,-0.348962111
72,200,7.160027049,0.99988901,-0.348962222
72,200,7.160027869,0.999889009,-0.348962332
72,200,7.160028689,0.999889008,-0.348962443
72,200,7.160029508,0.999889008,-0.348962554
72,200,7.160030328,0.999889007,-0.348962665
72,200,7.160031148,0.999889006,-0.348962775
72,200,7.160031967,0.999889005,-0.348962886
72,200,7.160032787,0.999889004,-0.348962997
72,200,7.160033607,0.999889004,-0.348963108
72,200,7.160034426,0.999889003,-0.348963218
72,200,7.160035246,0.999889002,-0.348963329
72,200,7.160036066,0.999889001,-0.34896344
72,200,7.160036885,0.999889,-0.348963551
72,200,7.160037705,0.999888999,-0.348963662
72,200,7.160038525,0.999888999,-0.348963773
72,200,7.160039344,0.999888998,-0.348963884
72,200,7.160040164,0.999888997,-0.348963995
72,200,7.160040984,0.999888996,-0.348964105
72,200,7.160041803,0.999888995,-0.348964216
72,200,7.160042623,0.999888995,-0.348964327
72,200,7.160043443,0.999888994,-0.348964438
72,200,7.160044262,0.999888993,-0.348964549
72,200,7.160045082,0.999888992,-0.34896466
72,200,7.160045902,0.999888991,-0.348964771
72,200,7.160046721,0.999888991,-0.348964882
72,200,7.160047541,0.99988899,-0.348964993
72,200,7.160048361,0.999888989,-0.348965104
72,200,7.16004918,0.999888988,-0.348965215
72,200,7.16005,0.999888987,-0.348965326
72,200,7.16005082,0.999888986,-0.348965438
72,200,7.160051639,0.999888986,-0.348965549
72,200,7.160052459,0.999888985,-0.34896566
72,200,7.160053279,0.999888984,-0.348965771
72,200,7.160054098,0.999888983,-0.348965882
72,200,7.160054918,0.999888982,-0.348965993
72,200,7.160055738,0.999888982,-0.348966104
72,200,7.160056557,0.999888981,-0.348966216
72,200,7.160057377,0.99988898,-0.348966327
72,200,7.160058197,0.999888979,-0.348966438
72,200,7.160059016,0.999888978,-0.348966549
72,200,7.160059836,0.999888977,-0.34896666
72,200,7.160060656,0.999888977,-0.348966772
72,200,7.160061475,0.999888976,-0.348966883
72,200,7.160062295,0.999888975,-0.348966994
72,200,7.160063115,0.999888974,-0.348967106
72,200,7.160063934,0.999888973,-0.348967217
72,200,7.160064754,0.999888973,-0.348967328
72,200,7.160065574,0.999888972,-0.34896744
72,200,7.160066393,0.999888971,-0.348967551
72,200,7.160067213,0.99988897,-0.348967662
72,200,7.160068033,0.999888969,-0.348967774
72,200,7.160068852,0.999888969,-0.348967885
72,200,7.160069672,0.999888968,-0.348967996
72,200,7.160070492,0.999888967,-0.348968108
72,200,7.160071311,0.999888966,-0.348968219
72,200,7.160072131,0.999888965,-0.348968331
72,200,7.160072951,0.999888964,-0.348968442
72,200,7.16007377,0.999888964,-0.348968554
72,200,7.16007459,0.999888963,-0.348968665
72,200,7.16007541,0.999888962,-0.348968777
72,200,7.16007623,0.999888961,-0.348968888
72,200,7.160077049,0.99988896,-0.348969
72,200,7.160077869,0.99988896,-0.348969111
72,200,7.160078689,0.999888959,-0.348969223
72,200,7.160079508,0.999888958,-0.348969335
72,200,7.160080328,0.999888957,-0.348969446
72,200,7.160081148,0.999888956,-0.348969558
72,200,7.160081967,0.999888955,-0.348969669
72,200,7.160082787,0.999888955,-0.348969781
72,200,7.160083607,0.999888954,-0.348969893
72,200,7.160084426,0.999888953,-0.348970004
72,200,7.160085246,0.999888952,-0.348970116
72,200,7.160086066,0.999888951,-0.348970228
72,200,7.160086885,0.99988895,-0.34897034
72,200,7.160087705,0.99988895,-0.348970451
72,200,7.160088525,0.999888949,-0.348970563
72,200,7.160089344,0.999888948,-0.348970675
72,200,7.160090164,0.999888947,-0.348970787
72,200,7.160090984,0.999888946,-0.348970898
72,200,7.160091803,0.999888946,-0.34897101
72,200,7.160092623,0.999888945,-0.348971122
72,200,7.160093443,0.999888944,-0.348971234
72,200,7.160094262,0.999888943,-0.348971346
72,200,7.160095082,0.999888942,-0.348971457
72,200,7.160095902,0.999888941,-0.348971569
72,200,7.160096721,0.999888941,-0.348971681
72,200,7.160097541,0.99988894,-0.348971793
72,200,7.160098361,0.999888939,-0.348971905
72,200,7.16009918,0.999888938,-0.348972017
72,200,7.1601,0.999888937,-0.348972129
72,200,7.16010082,0.999888937,-0.348972241
72,200,7.160101639,0.999888936,-0.348972353
72,200,7.160102459,0.999888935,-0.348972465
72,200,7.160103279,0.999888934,-0.348972577
72,200,7.160104098,0.999888933,-0.348972689
72,200,7.160104918,0.999888932,-0.348972801
72,200,7.160105738,0.999888932,-0.348972913
72,200,7.160106557,0.999888931,-0.348973025
72,200,7.160107377,0.99988893,-0.348973137
72,200,7.160108197,0.999888929,-0.348973249
72,200,7.160109016,0.999888928,-0.348973361
72,200,7.160109836,0.999888927,-0.348973473
72,200,7.160110656,0.999888927,-0.348973586
72,200,7.160111475,0.999888926,-0.348973698
72,200,7.160112295,0.999888925,-0.34897381
72,200,7.160113115,0.999888924,-0.348973922
72,200,7.160113934,0.999888923,-0.348974034
72,200,7.160114754,0.999888922,-0.348974146
72,200,7.160115574,0.999888922,-0.348974259
72,200,7.160116393,0.999888921,-0.348974371
72,200,7.160117213,0.99988892,-0.348974483
72,200,7.160118033,0.999888919,-0.348974595
72,200,7.160118852,0.999888918,-0.348974708
72,200,7.160119672,0.999888918,-0.34897482
72,200,7.160120492,0.999888917,-0.348974932
72,200,7.160121311,0.999888916,-0.348975045
72,200,7.160122131,0.999888915,-0.348975157
72,200,7.160122951,0.999888914,-0.348975269
72,200,7.16012377,0.999888913,-0.348975382
72,200,7.16012459,0.999888913,-0.348975494
72,200,7.16012541,0.999888912,-0.348975606
72,200,7.16012623,0.999888911,-0.348975719
72,200,7.160127049,0.99988891,-0.348975831
72,200,7.160127869,0.999888909,-0.348975944
72,200,7.160128689,0.999888908,-0.348976056
72,200,7.160129508,0.999888908,-0.348976169
72,200,7.160130328,0.999888907,-0.348976281
72,200,7.160131148,0.999888906,-0.348976394
72,200,7.160131967,0.999888905,-0.348976506
72,200,7.160132787,0.999888904,-0.348976619
72,200,7.160133607,0.999888903,-0.348976731
72,200,7.160134426,0.999888903,-0.348976844
72,200,7.160135246,0.999888902,-0.348976956
72,200,7.160136066,0.999888901,-0.348977069
72,200,7.160136885,0.9998889,-0.348977181
72,200,7.160137705,0.999888899,-0.348977294
72,200,7.160138525,0.999888898,-0.348977407
72,200,7.160139344,0.999888898,-0.348977519
72,200,7.160140164,0.999888897,-0.348977632
72,200,7.160140984,0.999888896,-0.348977745
72,200,7.160141803,0.999888895,-0.348977857
72,200,7.160142623,0.999888894,-0.34897797
72,200,7.160143443,0.999888893,-0.348978083
72,200,7.160144262,0.999888893,-0.348978196
72,200,7.160145082,0.999888892,-0.348978308
72,200,7.160145902,0.999888891,-0.348978421
72,200,7.160146721,0.99988889,-0.348978534
72,200,7.160147541,0.999888889,-0.348978647
72,200,7.160148361,0.999888888,-0.348978759
72,200,7.16014918,0.999888888,-0.348978872
72,200,7.16015,0.999888887,-0.348978985
72,200,7.16015082,0.999888886,-0.348979098
72,200,7.160151639,0.999888885,-0.348979211
72,200,7.160152459,0.999888884,-0.348979324
72,200,7.160153279,0.999888883,-0.348979437
72,200,7.160154098,0.999888883,-0.348979549
72,200,7.160154918,0.999888882,-0.348979662
72,200,7.160155738,0.999888881,-0.348979775
72,200,7.160156557,0.99988888,-0.348979888
72,200,7.160157377,0.999888879,-0.348980001
72,200,7.160158197,0.999888878,-0.348980114
72,200,7.160159016,0.999888878,-0.348980227
72,200,7.160159836,0.999888877,-0.34898034
72,200,7.160160656,0.999888876,-0.348980453
72,200,7.160161475,0.999888875,-0.348980566
72,200,7.160162295,0.999888874,-0.348980679
72,200,7.160163115,0.999888873,-0.348980792
72,200,7.160163934,0.999888873,-0.348980905
72,200,7.160164754,0.999888872,-0.348981019
72,200,7.160165574,0.999888871,-0.348981132
72,200,7.160166393,0.99988887,-0.348981245
72,200,7.160167213,0.999888869,-0.348981358
72,200,7.160168033,0.999888868,-0.348981471
72,200,7.160168852,0.999888868,-0.348981584
72,200,7.160169672,0.999888867,-0.348981697
72,200,7.160170492,0.999888866,-0.348981811
72,200,7.160171311,0.999888865,-0.348981924
72,200,7.160172131,0.999888864,-0.348982037
72,200,7.160172951,0.999888863,-0.34898215
72,200,7.16017377,0.999888863,-0.348982264
72,200,7.16017459,0.999888862,-0.348982377
72,200,7.16017541,0.999888861,-0.34898249
72,200,7.16017623,0.99988886,-0.348982604
72,200,7.160177049,0.999888859,-0.348982717
72,200,7.160177869,0.999888858,-0.34898283
72,200,7.160178689,0.999888857,-0.348982944
72,200,7.160179508,0.999888857,-0.348983057
72,200,7.160180328,0.999888856,-0.34898317
72,200,7.160181148,0.999888855,-0.348983284
72,200,7.160181967,0.999888854,-0.348983397
72,200,7.160182787,0.999888853,-0.348983511
72,200,7.160183607,0.999888852,-0.348983624
72,200,7.160184426,0.999888852,-0.348983737
72,200,7.160185246,0.999888851,-0.348983851
72,200,7.160186066,0.99988885,-0.348983964
72,200,7.160186885,0.999888849,-0.348984078
72,200,7.160187705,0.999888848,-0.348984191
72,200,7.160188525,0.999888847,-0.348984305
72,200,7.160189344,0.999888847,-0.348984418
72,200,7.160190164,0.999888846,-0.348984532
72,200,7.160190984,0.999888845,-0.348984646
72,200,7.160191803,0.999888844,-0.348984759
72,200,7.160192623,0.999888843,-0.348984873
72,200,7.160193443,0.999888842,-0.348984986
72,200,7.160194262,0.999888842,-0.3489851
72,200,7.160195082,0.999888841,-0.348985214
72,200,7.160195902,0.99988884,-0.348985327
72,200,7.160196721,0.999888839,-0.348985441
72,200,7.160197541,0.999888838,-0.348985555
72,200,7.160198361,0.999888837,-0.348985668
72,200,7.16019918,0.999888836,-0.348985782
72,200,7.1602,0.999888836,-0.348985896
72,200,7.16020082,0.999888835,-0.34898601
72,200,7.160201639,0.999888834,-0.348986123
72,200,7.160202459,0.999888833,-0.348986237
72,200,7.160203279,0.999888832,-0.348986351
72,200,7.160204098,0.999888831,-0.348986465
72,200,7.160204918,0.999888831,-0.348986579
72,200,7.160205738,0.99988883,-0.348986692
72,200,7.160206557,0.999888829,-0.348986806
72,200,7.160207377,0.999888828,-0.34898692
72,200,7.160208197,0.999888827,-0.348987034
72,200,7.160209016,0.999888826,-0.348987148
72,200,7.160209836,0.999888825,-0.348987262
72,200,7.160210656,0.999888825,-0.348987376
72,200,7.160211475,0.999888824,-0.34898749
72,200,7.160212295,0.999888823,-0.348987604
72,200,7.160213115,0.999888822,-0.348987718
72,200,7.160213934,0.999888821,-0.348987832
72,200,7.160214754,0.99988882,-0.348987946
72,200,7.160215574,0.99988882,-0.34898806
72,200,7.160216393,0.999888819,-0.348988174
72,200,7.160217213,0.999888818,-0.348988288
72,200,7.160218033,0.999888817,-0.348988402
72,200,7.160218852,0.999888816,-0.348988516
72,200,7.160219672,0.999888815,-0.34898863
72,200,7.160220492,0.999888814,-0.348988744
72,200,7.160221311,0.999888814,-0.348988858
72,200,7.160222131,0.999888813,-0.348988973
72,200,7.160222951,0.999888812,-0.348989087
72,200,7.16022377,0.999888811,-0.348989201
72,200,7.16022459,0.99988881,-0.348989315
72,200,7.16022541,0.999888809,-0.348989429
72,200,7.16022623,0.999888808,-0.348989543
72,200,7.160227049,0.999888808,-0.348989658
72,200,7.160227869,0.999888807,-0.348989772
72,200,7.160228689,0.999888806,-0.348989886
72,200,7.160229508,0.999888805,-0.348990001
72,200,7.160230328,0.999888804,-0.348990115
72,200,7.160231148,0.999888803,-0.348990229
72,200,7.160231967,0.999888803,-0.348990343
72,200,7.160232787,0.999888802,-0.348990458
72,200,7.160233607,0.999888801,-0.348990572
72,200,7.160234426,0.9998888,-0.348990687
72,200,7.160235246,0.999888799,-0.348990801
72,200,7.160236066,0.999888798,-0.348990915
72,200,7.160236885,0.999888797,-0.34899103
72,200,7.160237705,0.999888797,-0.348991144
72,200,7.160238525,0.999888796,-0.348991259
72,200,7.160239344,0.999888795,-0.348991373
72,200,7.160240164,0.999888794,-0.348991488
72,200,7.160240984,0.999888793,-0.348991602
72,200,7.160241803,0.999888792,-0.348991717
72,200,7.160242623,0.999888791,-0.348991831
72,200,7.160243443,0.999888791,-0.348991946
72,200,7.160244262,0.99988879,-0.34899206
72,200,7.160245082,0.999888789,-0.348992175
72,200,7.160245902,0.999888788,-0.348992289
72,200,7.160246721,0.999888787,-0.348992404
72,200,7.160247541,0.999888786,-0.348992519
72,200,7.160248361,0.999888785,-0.348992633
72,200,7.16024918,0.999888785,-0.348992748
72,200,7.16025,0.999888784,-0.348992862
72,200,7.16025082,0.999888783,-0.348992977
72,200,7.160251639,0.999888782,-0.348993092
72,200,7.160252459,0.999888781,-0.348993207
72,200,7.160253279,0.99988878,-0.348993321
72,200,7.160254098,0.999888779,-0.348993436
72,200,7.160254918,0.999888779,-0.348993551
72,200,7.160255738,0.999888778,-0.348993666
72,200,7.160256557,0.999888777,-0.34899378
72,200,7.160257377,0.999888776,-0.348993895
72,200,7.160258197,0.999888775,-0.34899401
72,200,7.160259016,0.999888774,-0.348994125
72,200,7.160259836,0.999888774,-0.34899424
72,200,7.160260656,0.999888773,-0.348994354
72,200,7.160261475,0.999888772,-0.348994469
72,200,7.160262295,0.999888771,-0.348994584
72,200,7.160263115,0.99988877,-0.348994699
72,200,7.160263934,0.999888769,-0.348994814
72,200,7.160264754,0.999888768,-0.348994929
72,200,7.160265574,0.999888768,-0.348995044
72,200,7.160266393,0.999888767,-0.348995159
72,200,7.160267213,0.999888766,-0.348995274
72,200,7.160268033,0.999888765,-0.348995389
72,200,7.160268852,0.999888764,-0.348995504
72,200,7.160269672,0.999888763,-0.348995619
72,200,7.160270492,0.999888762,-0.348995734
72,200,7.160271311,0.999888761,-0.348995849
72,200,7.160272131,0.999888761,-0.348995964
72,200,7.160272951,0.99988876,-0.348996079
72,200,7.16027377,0.999888759,-0.348996194
72,200,7.16027459,0.999888758,-0.348996309
72,200,7.16027541,0.999888757,-0.348996425
72,200,7.16027623,0.999888756,-0.34899654
72,200,7.160277049,0.999888755,-0.348996655
72,200,7.160277869,0.999888755,-0.34899677
72,200,7.160278689,0.999888754,-0.348996885
72,200,7.160279508,0.999888753,-0.348997
72,200,7.160280328,0.999888752,-0.348997116
72,200,7.160281148,0.999888751,-0.348997231
72,200,7.160281967,0.99988875,-0.348997346
72,200,7.160282787,0.999888749,-0.348997461
72,200,7.160283607,0.999888749,-0.348997577
72,200,7.160284426,0.999888748,-0.348997692
72,200,7.160285246,0.999888747,-0.348997807
72,200,7.160286066,0.999888746,-0.348997923
72,200,7.160286885,0.999888745,-0.348998038
72,200,7.160287705,0.999888744,-0.348998153
72,200,7.160288525,0.999888743,-0.348998269
72,200,7.160289344,0.999888743,-0.348998384
72,200,7.160290164,0.999888742,-0.3489985
72,200,7.160290984,0.999888741,-0.348998615
72,200,7.160291803,0.99988874,-0.34899873
72,200,7.160292623,0.999888739,-0.348998846
72,200,7.160293443,0.999888738,-0.348998961
72,200,7.160294262,0.999888737,-0.348999077
72,200,7.160295082,0.999888736,-0.348999192
72,200,7.160295902,0.999888736,-0.348999308
72,200,7.160296721,0.999888735,-0.348999423
72,200,7.160297541,0.999888734,-0.348999539
72,200,7.160298361,0.999888733,-0.348999655
72,200,7.16029918,0.999888732,-0.34899977
72,200,7.1603,0.999888731,-0.348999886
72,200,7.16030082,0.99988873,-0.349000001
72,200,7.160301639,0.99988873,-0.349000117
72,200,7.160302459,0.999888729,-0.349000233
72,200,7.160303279,0.999888728,-0.349000348
72,200,7.160304098,0.999888727,-0.349000464
72,200,7.160304918,0.999888726,-0.34900058
72,200,7.160305738,0.999888725,-0.349000695
72,200,7.160306557,0.999888724,-0.349000811
72,200,7.160307377,0.999888723,-0.349000927
72,200,7.160308197,0.999888723,-0.349001043
72,200,7.160309016,0.999888722,-0.349001158
72,200,7.160309836,0.999888721,-0.349001274
72,200,7.160310656,0.99988872,-0.34900139
72,200,7.160311475,0.999888719,-0.349001506
72,200,7.160312295,0.999888718,-0.349001622
72,200,7.160313115,0.999888717,-0.349001738
72,200,7.160313934,0.999888717,-0.349001853
72,200,7.160314754,0.999888716,-0.349001969
72,200,7.160315574,0.999888715,-0.349002085
72,200,7.160316393,0.999888714,-0.349002201
72,200,7.160317213,0.999888713,-0.349002317
72,200,7.160318033,0.999888712,-0.349002433
72,200,7.160318852,0.999888711,-0.349002549
72,200,7.160319672,0.99988871,-0.349002665
72,200,7.160320492,0.99988871,-0.349002781
72,200,7.160321311,0.999888709,-0.349002897
72,200,7.160322131,0.999888708,-0.349003013
72,200,7.160322951,0.999888707,-0.349003129
72,200,7.16032377,0.999888706,-0.349003245
72,200,7.16032459,0.999888705,-0.349003361
72,200,7.16032541,0.999888704,-0.349003477
72,200,7.16032623,0.999888703,-0.349003593
72,200,7.160327049,0.999888703,-0.349003709
72,200,7.160327869,0.999888702,-0.349003825
72,200,7.160328689,0.999888701,-0.349003942
72,200,7.160329508,0.9998887,-0.349004058
72,200,7.160330328,0.999888699,-0.349004174
72,200,7.160331148,0.999888698,-0.34900429
72,200,7.160331967,0.999888697,-0.349004406
72,200,7.160332787,0.999888697,-0.349004523
72,200,7.160333607,0.999888696,-0.349004639
72,200,7.160334426,0.999888695,-0.349004755
72,200,7.160335246,0.999888694,-0.349004871
72,200,7.160336066,0.999888693,-0.349004988
72,200,7.160336885,0.999888692,-0.349005104
72,200,7.160337705,0.999888691,-0.34900522
72,200,7.160338525,0.99988869,-0.349005337
72,200,7.160339344,0.99988869,-0.349005453
72,200,7.160340164,0.999888689,-0.349005569
72,200,7.160340984,0.999888688,-0.349005686
72,200,7.160341803,0.999888687,-0.349005802
72,200,7.160342623,0.999888686,-0.349005919
72,200,7.160343443,0.999888685,-0.349006035
72,200,7.160344262,0.999888684,-0.349006151
72,200,7.160345082,0.999888683,-0.349006268
72,200,7.160345902,0.999888683,-0.349006384
72,200,7.160346721,0.999888682,-0.349006501
72,200,7.160347541,0.999888681,-0.349006617
72,200,7.160348361,0.99988868,-0.349006734
72,200,7.16034918,0.999888679,-0.34900685
72,200,7.16035,0.999888678,-0.349006967
72,200,7.16035082,0.999888677,-0.349007084
72,200,7.160351639,0.999888676,-0.3490072
72,200,7.160352459,0.999888676,-0.349007317
72,200,7.160353279,0.999888675,-0.349007433
72,200,7.160354098,0.999888674,-0.34900755
72,200,7.160354918,0.999888673,-0.349007667
72,200,7.160355738,0.999888672,-0.349007783
72,200,7.160356557,0.999888671,-0.3490079
72,200,7.160357377,0.99988867,-0.349008017
72,200,7.160358197,0.999888669,-0.349008133
72,200,7.160359016,0.999888668,-0.34900825
72,200,7.160359836,0.999888668,-0.349008367
72,200,7.160360656,0.999888667,-0.349008484
72,200,7.160361475,0.999888666,-0.3490086
72,200,7.160362295,0.999888665,-0.349008717
72,200,7.160363115,0.999888664,-0.349008834
72,200,7.160363934,0.999888663,-0.349008951
72,200,7.160364754,0.999888662,-0.349009068
72,200,7.160365574,0.999888661,-0.349009185
72,200,7.160366393,0.999888661,-0.349009301
72,200,7.160367213,0.99988866,-0.349009418
72,200,7.160368033,0.999888659,-0.349009535
72,200,7.160368852,0.999888658,-0.349009652
72,200,7.160369672,0.999888657,-0.349009769
72,200,7.160370492,0.999888656,-0.349009886
72,200,7.160371311,0.999888655,-0.349010003
72,200,7.160372131,0.999888654,-0.34901012
72,200,7.160372951,0.999888654,-0.349010237
72,200,7.16037377,0.999888653,-0.349010354
