G_CP [um],L_CP [um],Freq [GHz],"mag(S(2,1)) []","ang_rad(S(2,1)) []"
22,200,7.095,0.963050824,2.725570188
22,200,7.095000615,0.963050744,2.725569835
22,200,7.09500123,0.963050664,2.725569483
22,200,7.095001844,0.963050583,2.72556913
22,200,7.095002459,0.963050503,2.725568778
22,200,7.095003074,0.963050423,2.725568425
22,200,7.095003689,0.963050343,2.725568072
22,200,7.095004303,0.963050262,2.72556772
22,200,7.095004918,0.963050182,2.725567367
22,200,7.095005533,0.963050102,2.725567014
22,200,7.095006148,0.963050022,2.725566661
22,200,7.095006762,0.963049941,2.725566308
22,200,7.095007377,0.963049861,2.725565956
22,200,7.095007992,0.963049781,2.725565603
22,200,7.095008607,0.9630497,2.72556525
22,200,7.095009221,0.96304962,2.725564897
22,200,7.095009836,0.96304954,2.725564544
22,200,7.095010451,0.963049459,2.72556419
22,200,7.095011066,0.963049379,2.725563837
22,200,7.09501168,0.963049299,2.725563484
22,200,7.095012295,0.963049218,2.725563131
22,200,7.09501291,0.963049138,2.725562777
22,200,7.095013525,0.963049058,2.725562424
22,200,7.095014139,0.963048977,2.725562071
22,200,7.095014754,0.963048897,2.725561717
22,200,7.095015369,0.963048816,2.725561364
22,200,7.095015984,0.963048736,2.72556101
22,200,7.095016598,0.963048655,2.725560657
22,200,7.095017213,0.963048575,2.725560303
22,200,7.095017828,0.963048494,2.72555995
22,200,7.095018443,0.963048414,2.725559596
22,200,7.095019057,0.963048333,2.725559242
22,200,7.095019672,0.963048253,2.725558889
22,200,7.095020287,0.963048172,2.725558535
22,200,7.095020902,0.963048092,2.725558181
22,200,7.095021516,0.963048011,2.725557827
22,200,7.095022131,0.963047931,2.725557473
22,200,7.095022746,0.96304785,2.725557119
22,200,7.095023361,0.96304777,2.725556765
22,200,7.095023975,0.963047689,2.725556411
22,200,7.09502459,0.963047609,2.725556057
22,200,7.095025205,0.963047528,2.725555703
22,200,7.09502582,0.963047447,2.725555349
22,200,7.095026434,0.963047367,2.725554994
22,200,7.095027049,0.963047286,2.72555464
22,200,7.095027664,0.963047205,2.725554286
22,200,7.095028279,0.963047125,2.725553932
22,200,7.095028893,0.963047044,2.725553577
22,200,7.095029508,0.963046963,2.725553223
22,200,7.095030123,0.963046883,2.725552868
22,200,7.095030738,0.963046802,2.725552514
22,200,7.095031352,0.963046721,2.725552159
22,200,7.095031967,0.963046641,2.725551805
22,200,7.095032582,0.96304656,2.72555145
22,200,7.095033197,0.963046479,2.725551095
22,200,7.095033811,0.963046399,2.72555074
22,200,7.095034426,0.963046318,2.725550386
22,200,7.095035041,0.963046237,2.725550031
22,200,7.095035656,0.963046156,2.725549676
22,200,7.09503627,0.963046075,2.725549321
22,200,7.095036885,0.963045995,2.725548966
22,200,7.0950375,0.963045914,2.725548611
22,200,7.095038115,0.963045833,2.725548256
22,200,7.09503873,0.963045752,2.725547901
22,200,7.095039344,0.963045671,2.725547546
22,200,7.095039959,0.963045591,2.725547191
22,200,7.095040574,0.96304551,2.725546836
22,200,7.095041189,0.963045429,2.72554648
22,200,7.095041803,0.963045348,2.725546125
22,200,7.095042418,0.963045267,2.72554577
22,200,7.095043033,0.963045186,2.725545414
22,200,7.095043648,0.963045105,2.725545059
22,200,7.095044262,0.963045024,2.725544704
22,200,7.095044877,0.963044943,2.725544348
22,200,7.095045492,0.963044862,2.725543993
22,200,7.095046107,0.963044782,2.725543637
22,200,7.095046721,0.963044701,2.725543281
22,200,7.095047336,0.96304462,2.725542926
22,200,7.095047951,0.963044539,2.72554257
22,200,7.095048566,0.963044458,2.725542214
22,200,7.09504918,0.963044377,2.725541859
22,200,7.095049795,0.963044296,2.725541503
22,200,7.09505041,0.963044215,2.725541147
22,200,7.095051025,0.963044134,2.725540791
22,200,7.095051639,0.963044053,2.725540435
22,200,7.095052254,0.963043971,2.725540079
22,200,7.095052869,0.96304389,2.725539723
22,200,7.095053484,0.963043809,2.725539367
22,200,7.095054098,0.963043728,2.725539011
22,200,7.095054713,0.963043647,2.725538654
22,200,7.095055328,0.963043566,2.725538298
22,200,7.095055943,0.963043485,2.725537942
22,200,7.095056557,0.963043404,2.725537586
22,200,7.095057172,0.963043323,2.725537229
22,200,7.095057787,0.963043242,2.725536873
22,200,7.095058402,0.96304316,2.725536517
22,200,7.095059016,0.963043079,2.72553616
22,200,7.095059631,0.963042998,2.725535804
22,200,7.095060246,0.963042917,2.725535447
22,200,7.095060861,0.963042836,2.72553509
22,200,7.095061475,0.963042754,2.725534734
22,200,7.09506209,0.963042673,2.725534377
22,200,7.095062705,0.963042592,2.72553402
22,200,7.09506332,0.963042511,2.725533664
22,200,7.095063934,0.96304243,2.725533307
22,200,7.095064549,0.963042348,2.72553295
22,200,7.095065164,0.963042267,2.725532593
22,200,7.095065779,0.963042186,2.725532236
22,200,7.095066393,0.963042104,2.725531879
22,200,7.095067008,0.963042023,2.725531522
22,200,7.095067623,0.963041942,2.725531165
22,200,7.095068238,0.963041861,2.725530808
22,200,7.095068852,0.963041779,2.725530451
22,200,7.095069467,0.963041698,2.725530093
22,200,7.095070082,0.963041616,2.725529736
22,200,7.095070697,0.963041535,2.725529379
22,200,7.095071311,0.963041454,2.725529022
22,200,7.095071926,0.963041372,2.725528664
22,200,7.095072541,0.963041291,2.725528307
22,200,7.095073156,0.96304121,2.725527949
22,200,7.09507377,0.963041128,2.725527592
22,200,7.095074385,0.963041047,2.725527234
22,200,7.095075,0.963040965,2.725526877
22,200,7.095075615,0.963040884,2.725526519
22,200,7.09507623,0.963040802,2.725526161
22,200,7.095076844,0.963040721,2.725525804
22,200,7.095077459,0.963040639,2.725525446
22,200,7.095078074,0.963040558,2.725525088
22,200,7.095078689,0.963040476,2.72552473
22,200,7.095079303,0.963040395,2.725524372
22,200,7.095079918,0.963040313,2.725524014
22,200,7.095080533,0.963040232,2.725523656
22,200,7.095081148,0.96304015,2.725523298
22,200,7.095081762,0.963040069,2.72552294
22,200,7.095082377,0.963039987,2.725522582
22,200,7.095082992,0.963039906,2.725522224
22,200,7.095083607,0.963039824,2.725521866
22,200,7.095084221,0.963039742,2.725521508
22,200,7.095084836,0.963039661,2.725521149
22,200,7.095085451,0.963039579,2.725520791
22,200,7.095086066,0.963039498,2.725520433
22,200,7.09508668,0.963039416,2.725520074
22,200,7.095087295,0.963039334,2.725519716
22,200,7.09508791,0.963039253,2.725519357
22,200,7.095088525,0.963039171,2.725518999
22,200,7.095089139,0.963039089,2.72551864
22,200,7.095089754,0.963039008,2.725518282
22,200,7.095090369,0.963038926,2.725517923
22,200,7.095090984,0.963038844,2.725517564
22,200,7.095091598,0.963038763,2.725517206
22,200,7.095092213,0.963038681,2.725516847
22,200,7.095092828,0.963038599,2.725516488
22,200,7.095093443,0.963038517,2.725516129
22,200,7.095094057,0.963038436,2.72551577
22,200,7.095094672,0.963038354,2.725515411
22,200,7.095095287,0.963038272,2.725515052
22,200,7.095095902,0.96303819,2.725514693
22,200,7.095096516,0.963038108,2.725514334
22,200,7.095097131,0.963038027,2.725513975
22,200,7.095097746,0.963037945,2.725513616
22,200,7.095098361,0.963037863,2.725513256
22,200,7.095098975,0.963037781,2.725512897
22,200,7.09509959,0.963037699,2.725512538
22,200,7.095100205,0.963037617,2.725512179
22,200,7.09510082,0.963037535,2.725511819
22,200,7.095101434,0.963037454,2.72551146
22,200,7.095102049,0.963037372,2.7255111
22,200,7.095102664,0.96303729,2.725510741
22,200,7.095103279,0.963037208,2.725510381
22,200,7.095103893,0.963037126,2.725510021
22,200,7.095104508,0.963037044,2.725509662
22,200,7.095105123,0.963036962,2.725509302
22,200,7.095105738,0.96303688,2.725508942
22,200,7.095106352,0.963036798,2.725508583
22,200,7.095106967,0.963036716,2.725508223
22,200,7.095107582,0.963036634,2.725507863
22,200,7.095108197,0.963036552,2.725507503
22,200,7.095108811,0.96303647,2.725507143
22,200,7.095109426,0.963036388,2.725506783
22,200,7.095110041,0.963036306,2.725506423
22,200,7.095110656,0.963036224,2.725506063
22,200,7.09511127,0.963036142,2.725505703
22,200,7.095111885,0.96303606,2.725505342
22,200,7.0951125,0.963035978,2.725504982
22,200,7.095113115,0.963035896,2.725504622
22,200,7.09511373,0.963035814,2.725504262
22,200,7.095114344,0.963035731,2.725503901
22,200,7.095114959,0.963035649,2.725503541
22,200,7.095115574,0.963035567,2.72550318
22,200,7.095116189,0.963035485,2.72550282
22,200,7.095116803,0.963035403,2.725502459
22,200,7.095117418,0.963035321,2.725502099
22,200,7.095118033,0.963035239,2.725501738
22,200,7.095118648,0.963035156,2.725501378
22,200,7.095119262,0.963035074,2.725501017
22,200,7.095119877,0.963034992,2.725500656
22,200,7.095120492,0.96303491,2.725500295
22,200,7.095121107,0.963034828,2.725499935
22,200,7.095121721,0.963034745,2.725499574
22,200,7.095122336,0.963034663,2.725499213
22,200,7.095122951,0.963034581,2.725498852
22,200,7.095123566,0.963034499,2.725498491
22,200,7.09512418,0.963034416,2.72549813
22,200,7.095124795,0.963034334,2.725497769
22,200,7.09512541,0.963034252,2.725497407
22,200,7.095126025,0.963034169,2.725497046
22,200,7.095126639,0.963034087,2.725496685
22,200,7.095127254,0.963034005,2.725496324
22,200,7.095127869,0.963033922,2.725495962
22,200,7.095128484,0.96303384,2.725495601
22,200,7.095129098,0.963033758,2.72549524
22,200,7.095129713,0.963033675,2.725494878
22,200,7.095130328,0.963033593,2.725494517
22,200,7.095130943,0.963033511,2.725494155
22,200,7.095131557,0.963033428,2.725493794
22,200,7.095132172,0.963033346,2.725493432
22,200,7.095132787,0.963033263,2.72549307
22,200,7.095133402,0.963033181,2.725492709
22,200,7.095134016,0.963033098,2.725492347
22,200,7.095134631,0.963033016,2.725491985
22,200,7.095135246,0.963032933,2.725491623
22,200,7.095135861,0.963032851,2.725491261
22,200,7.095136475,0.963032768,2.725490899
22,200,7.09513709,0.963032686,2.725490538
22,200,7.095137705,0.963032603,2.725490175
22,200,7.09513832,0.963032521,2.725489813
22,200,7.095138934,0.963032438,2.725489451
22,200,7.095139549,0.963032356,2.725489089
22,200,7.095140164,0.963032273,2.725488727
22,200,7.095140779,0.963032191,2.725488365
22,200,7.095141393,0.963032108,2.725488002
22,200,7.095142008,0.963032026,2.72548764
22,200,7.095142623,0.963031943,2.725487278
22,200,7.095143238,0.96303186,2.725486915
22,200,7.095143852,0.963031778,2.725486553
22,200,7.095144467,0.963031695,2.72548619
22,200,7.095145082,0.963031612,2.725485828
22,200,7.095145697,0.96303153,2.725485465
22,200,7.095146311,0.963031447,2.725485103
22,200,7.095146926,0.963031364,2.72548474
22,200,7.095147541,0.963031282,2.725484377
22,200,7.095148156,0.963031199,2.725484015
22,200,7.09514877,0.963031116,2.725483652
22,200,7.095149385,0.963031034,2.725483289
22,200,7.09515,0.963030951,2.725482926
22,200,7.095150615,0.963030868,2.725482563
22,200,7.09515123,0.963030785,2.7254822
22,200,7.095151844,0.963030703,2.725481837
22,200,7.095152459,0.96303062,2.725481474
22,200,7.095153074,0.963030537,2.725481111
22,200,7.095153689,0.963030454,2.725480748
22,200,7.095154303,0.963030372,2.725480384
22,200,7.095154918,0.963030289,2.725480021
22,200,7.095155533,0.963030206,2.725479658
22,200,7.095156148,0.963030123,2.725479295
22,200,7.095156762,0.96303004,2.725478931
22,200,7.095157377,0.963029957,2.725478568
22,200,7.095157992,0.963029874,2.725478204
22,200,7.095158607,0.963029792,2.725477841
22,200,7.095159221,0.963029709,2.725477477
22,200,7.095159836,0.963029626,2.725477114
22,200,7.095160451,0.963029543,2.72547675
22,200,7.095161066,0.96302946,2.725476386
22,200,7.09516168,0.963029377,2.725476023
22,200,7.095162295,0.963029294,2.725475659
22,200,7.09516291,0.963029211,2.725475295
22,200,7.095163525,0.963029128,2.725474931
22,200,7.095164139,0.963029045,2.725474567
22,200,7.095164754,0.963028962,2.725474203
22,200,7.095165369,0.963028879,2.725473839
22,200,7.095165984,0.963028796,2.725473475
22,200,7.095166598,0.963028713,2.725473111
22,200,7.095167213,0.96302863,2.725472747
22,200,7.095167828,0.963028547,2.725472383
22,200,7.095168443,0.963028464,2.725472019
22,200,7.095169057,0.963028381,2.725471654
22,200,7.095169672,0.963028298,2.72547129
22,200,7.095170287,0.963028215,2.725470926
22,200,7.095170902,0.963028132,2.725470561
22,200,7.095171516,0.963028049,2.725470197
22,200,7.095172131,0.963027966,2.725469832
22,200,7.095172746,0.963027882,2.725469468
22,200,7.095173361,0.963027799,2.725469103
22,200,7.095173975,0.963027716,2.725468739
22,200,7.09517459,0.963027633,2.725468374
22,200,7.095175205,0.96302755,2.725468009
22,200,7.09517582,0.963027467,2.725467645
22,200,7.095176434,0.963027383,2.72546728
22,200,7.095177049,0.9630273,2.725466915
22,200,7.095177664,0.963027217,2.72546655
22,200,7.095178279,0.963027134,2.725466185
22,200,7.095178893,0.963027051,2.72546582
22,200,7.095179508,0.963026967,2.725465455
22,200,7.095180123,0.963026884,2.72546509
22,200,7.095180738,0.963026801,2.725464725
22,200,7.095181352,0.963026718,2.72546436
22,200,7.095181967,0.963026634,2.725463995
22,200,7.095182582,0.963026551,2.725463629
22,200,7.095183197,0.963026468,2.725463264
22,200,7.095183811,0.963026384,2.725462899
22,200,7.095184426,0.963026301,2.725462533
22,200,7.095185041,0.963026218,2.725462168
22,200,7.095185656,0.963026134,2.725461803
22,200,7.09518627,0.963026051,2.725461437
22,200,7.095186885,0.963025968,2.725461071
22,200,7.0951875,0.963025884,2.725460706
22,200,7.095188115,0.963025801,2.72546034
22,200,7.09518873,0.963025717,2.725459975
22,200,7.095189344,0.963025634,2.725459609
22,200,7.095189959,0.963025551,2.725459243
22,200,7.095190574,0.963025467,2.725458877
22,200,7.095191189,0.963025384,2.725458511
22,200,7.095191803,0.9630253,2.725458145
22,200,7.095192418,0.963025217,2.72545778
22,200,7.095193033,0.963025133,2.725457414
22,200,7.095193648,0.96302505,2.725457048
22,200,7.095194262,0.963024966,2.725456681
22,200,7.095194877,0.963024883,2.725456315
22,200,7.095195492,0.963024799,2.725455949
22,200,7.095196107,0.963024716,2.725455583
22,200,7.095196721,0.963024632,2.725455217
22,200,7.095197336,0.963024549,2.72545485
22,200,7.095197951,0.963024465,2.725454484
22,200,7.095198566,0.963024381,2.725454118
22,200,7.09519918,0.963024298,2.725453751
22,200,7.095199795,0.963024214,2.725453385
22,200,7.09520041,0.963024131,2.725453018
22,200,7.095201025,0.963024047,2.725452652
22,200,7.095201639,0.963023963,2.725452285
22,200,7.095202254,0.96302388,2.725451918
22,200,7.095202869,0.963023796,2.725451552
22,200,7.095203484,0.963023712,2.725451185
22,200,7.095204098,0.963023629,2.725450818
22,200,7.095204713,0.963023545,2.725450451
22,200,7.095205328,0.963023461,2.725450084
22,200,7.095205943,0.963023378,2.725449717
22,200,7.095206557,0.963023294,2.72544935
22,200,7.095207172,0.96302321,2.725448983
22,200,7.095207787,0.963023126,2.725448616
22,200,7.095208402,0.963023043,2.725448249
22,200,7.095209016,0.963022959,2.725447882
22,200,7.095209631,0.963022875,2.725447515
22,200,7.095210246,0.963022791,2.725447148
22,200,7.095210861,0.963022708,2.72544678
22,200,7.095211475,0.963022624,2.725446413
22,200,7.09521209,0.96302254,2.725446046
22,200,7.095212705,0.963022456,2.725445678
22,200,7.09521332,0.963022372,2.725445311
22,200,7.095213934,0.963022288,2.725444943
22,200,7.095214549,0.963022204,2.725444576
22,200,7.095215164,0.963022121,2.725444208
22,200,7.095215779,0.963022037,2.72544384
22,200,7.095216393,0.963021953,2.725443473
22,200,7.095217008,0.963021869,2.725443105
22,200,7.095217623,0.963021785,2.725442737
22,200,7.095218238,0.963021701,2.725442369
22,200,7.095218852,0.963021617,2.725442001
22,200,7.095219467,0.963021533,2.725441633
22,200,7.095220082,0.963021449,2.725441265
22,200,7.095220697,0.963021365,2.725440897
22,200,7.095221311,0.963021281,2.725440529
22,200,7.095221926,0.963021197,2.725440161
22,200,7.095222541,0.963021113,2.725439793
22,200,7.095223156,0.963021029,2.725439425
22,200,7.09522377,0.963020945,2.725439057
22,200,7.095224385,0.963020861,2.725438688
22,200,7.095225,0.963020777,2.72543832
22,200,7.095225615,0.963020693,2.725437952
22,200,7.09522623,0.963020609,2.725437583
22,200,7.095226844,0.963020525,2.725437215
22,200,7.095227459,0.963020441,2.725436846
22,200,7.095228074,0.963020357,2.725436478
22,200,7.095228689,0.963020273,2.725436109
22,200,7.095229303,0.963020188,2.725435741
22,200,7.095229918,0.963020104,2.725435372
22,200,7.095230533,0.96302002,2.725435003
22,200,7.095231148,0.963019936,2.725434634
22,200,7.095231762,0.963019852,2.725434265
22,200,7.095232377,0.963019768,2.725433897
22,200,7.095232992,0.963019683,2.725433528
22,200,7.095233607,0.963019599,2.725433159
22,200,7.095234221,0.963019515,2.72543279
22,200,7.095234836,0.963019431,2.725432421
22,200,7.095235451,0.963019347,2.725432052
22,200,7.095236066,0.963019262,2.725431682
22,200,7.09523668,0.963019178,2.725431313
22,200,7.095237295,0.963019094,2.725430944
22,200,7.09523791,0.96301901,2.725430575
22,200,7.095238525,0.963018925,2.725430205
22,200,7.095239139,0.963018841,2.725429836
22,200,7.095239754,0.963018757,2.725429467
22,200,7.095240369,0.963018672,2.725429097
22,200,7.095240984,0.963018588,2.725428728
22,200,7.095241598,0.963018504,2.725428358
22,200,7.095242213,0.963018419,2.725427989
22,200,7.095242828,0.963018335,2.725427619
22,200,7.095243443,0.96301825,2.725427249
22,200,7.095244057,0.963018166,2.725426879
22,200,7.095244672,0.963018082,2.72542651
22,200,7.095245287,0.963017997,2.72542614
22,200,7.095245902,0.963017913,2.72542577
22,200,7.095246516,0.963017828,2.7254254
22,200,7.095247131,0.963017744,2.72542503
22,200,7.095247746,0.96301766,2.72542466
22,200,7.095248361,0.963017575,2.72542429
22,200,7.095248975,0.963017491,2.72542392
22,200,7.09524959,0.963017406,2.72542355
22,200,7.095250205,0.963017322,2.72542318
22,200,7.09525082,0.963017237,2.725422809
22,200,7.095251434,0.963017153,2.725422439
22,200,7.095252049,0.963017068,2.725422069
22,200,7.095252664,0.963016983,2.725421698
22,200,7.095253279,0.963016899,2.725421328
22,200,7.095253893,0.963016814,2.725420958
22,200,7.095254508,0.96301673,2.725420587
22,200,7.095255123,0.963016645,2.725420217
22,200,7.095255738,0.963016561,2.725419846
22,200,7.095256352,0.963016476,2.725419475
22,200,7.095256967,0.963016391,2.725419105
22,200,7.095257582,0.963016307,2.725418734
22,200,7.095258197,0.963016222,2.725418363
22,200,7.095258811,0.963016137,2.725417992
22,200,7.095259426,0.963016053,2.725417621
22,200,7.095260041,0.963015968,2.725417251
22,200,7.095260656,0.963015883,2.72541688
22,200,7.09526127,0.963015799,2.725416509
22,200,7.095261885,0.963015714,2.725416138
22,200,7.0952625,0.963015629,2.725415766
22,200,7.095263115,0.963015544,2.725415395
22,200,7.09526373,0.96301546,2.725415024
22,200,7.095264344,0.963015375,2.725414653
22,200,7.095264959,0.96301529,2.725414282
22,200,7.095265574,0.963015205,2.72541391
22,200,7.095266189,0.963015121,2.725413539
22,200,7.095266803,0.963015036,2.725413168
22,200,7.095267418,0.963014951,2.725412796
22,200,7.095268033,0.963014866,2.725412425
22,200,7.095268648,0.963014781,2.725412053
22,200,7.095269262,0.963014697,2.725411681
22,200,7.095269877,0.963014612,2.72541131
22,200,7.095270492,0.963014527,2.725410938
22,200,7.095271107,0.963014442,2.725410566
22,200,7.095271721,0.963014357,2.725410195
22,200,7.095272336,0.963014272,2.725409823
22,200,7.095272951,0.963014187,2.725409451
22,200,7.095273566,0.963014102,2.725409079
22,200,7.09527418,0.963014017,2.725408707
22,200,7.095274795,0.963013932,2.725408335
22,200,7.09527541,0.963013847,2.725407963
22,200,7.095276025,0.963013762,2.725407591
22,200,7.095276639,0.963013677,2.725407219
22,200,7.095277254,0.963013592,2.725406846
22,200,7.095277869,0.963013507,2.725406474
22,200,7.095278484,0.963013422,2.725406102
22,200,7.095279098,0.963013337,2.72540573
22,200,7.095279713,0.963013252,2.725405357
22,200,7.095280328,0.963013167,2.725404985
22,200,7.095280943,0.963013082,2.725404612
22,200,7.095281557,0.963012997,2.72540424
22,200,7.095282172,0.963012912,2.725403867
22,200,7.095282787,0.963012827,2.725403495
22,200,7.095283402,0.963012742,2.725403122
22,200,7.095284016,0.963012657,2.725402749
22,200,7.095284631,0.963012572,2.725402377
22,200,7.095285246,0.963012487,2.725402004
22,200,7.095285861,0.963012401,2.725401631
22,200,7.095286475,0.963012316,2.725401258
